date Fri Apr 19 11:06:25 AM 2024
base hex  timestamps absolute 
// version 7.2.0 
Begin TriggerblockFri Apr 19 11:06:25 AM 2024
0.000000 Start of measurement
2593.014     2          18FFE699x     Rx d 8 60 3C 80 15 A8 03 57 C5 
2593.0146    2          18FFE899x     Rx d 8 00 00 4F 21 03 14 00 15 
2593.0182    2          10FFE597x     Rx d 8 17 19 FA C8 74 15 98 3A 
2593.0188    2          18FF3197x     Rx d 8 A0 09 9C 09 F3 01 F3 01 
2593.0193    2          10F01797x     Rx d 8 0B 5F 3C 8C 15 00 00 00 
2593.0199    2          10FFE497x     Rx d 8 8F 00 00 00 02 00 00 21 
2593.0223    2          18FFE398x     Rx d 8 0F 00 0F 94 0C 00 5F 70 
2593.0232    2          18FFC698x     Rx d 8 3A 00 06 00 00 00 00 00 
2593.024     2          18FFE699x     Rx d 8 60 3C 86 15 A8 03 57 D5 
2593.0245    2          18FFE899x     Rx d 8 00 00 52 21 03 14 00 15 
2593.0251    2          10FFF5F4x     Rx d 8 05 08 7D 8B 00 00 00 00 
2593.0257    2          18FFF298x     Rx d 8 0F 14 03 14 00 01 01 9D 
2593.0282    2          10FFE597x     Rx d 8 17 29 FA C8 74 15 98 3A 
2593.0288    2          18FF3097x     Rx d 8 D5 00 10 00 00 00 00 00 
2593.0183    1          0CF00203x     Rx d 8 01 38 0E 00 00 00 00 00 
2593.0188    1          18FEA297x     Rx d 8 00 24 2C 00 F0 0A 00 00 
2593.0194    1          0CF00400x     Rx d 8 11 88 8F E0 15 00 00 8F 
2593.0199    1          18FF20EFx     Rx d 8 F1 8F 1C 07 7D EF 00 6D 
2593.0205    1          0C00000Bx     Rx d 8 30 FF FF FA FF FF FF 36 
2593.0211    1          18F0090Bx     Rx d 8 FF FF FF FF FF FF FF 80 
2593.0216    1          18FF7097x     Rx d 8 00 7D 00 2E E9 75 0C 10 
2593.0222    1          0CFF82BCx     Rx d 8 76 D4 C0 80 1E FF FF 3F 
2593.0228    1          08FE6E0Bx     Rx d 8 3A 0D C0 0E B6 0C 28 0E 
2593.0233    1          0CFF84A0x     Rx d 8 C0 00 C3 00 00 7E 7D 14 
2593.0239    1          18FEBF0Bx     Rx d 8 FD 0D 71 89 69 7F FF FF 
2593.0245    1          18F0010Bx     Rx d 8 00 00 C3 FF FF 01 FF F3 
2593.025     1          18FEF121x     Rx d 8 FF FF FF FF 00 FF FF FF 
2593.0256    1          18FF8CA9x     Rx d 8 00 00 00 00 00 00 00 00 
2593.0262    1          18FFA091x     Rx d 8 A0 F0 30 FC FF FF FF 46 
2593.0268    1          18FE4F0Bx     Rx d 8 FF FF FF FF FF FF FF FF 
2593.0283    1          0CF00203x     Rx d 8 01 40 0E 00 00 00 00 00 
2593.0288    1          18F00503x     Rx d 8 7E E8 03 7E 00 00 00 00 
2593.0294    1          0CF00400x     Rx d 8 11 88 8F E0 15 00 00 8F 
2593.03      1          18FEAD0Bx     Rx d 8 00 00 00 00 FE FE FF FF 
2593.0305    1          18F0090Bx     Rx d 8 FF FF FF FF FF FF FF 80 
2593.0311    1          18FA0517x     Rx d 8 01 00 30 00 40 00 10 81 
2593.0317    1          18FF20EFx     Rx d 8 F1 8F 20 07 7D EF 00 6D 
2593.0322    1          0C040B97x     Rx d 8 7E 7D CC 00 FF FF FF E1 
2593.0328    1          0CF00300x     Rx d 8 00 1B 00 00 00 00 00 00 
2593.0334    1          18F001ACx     Rx d 8 FF FF FF FF FF FF FF F3 
2593.0339    1          0CFF83AAx     Rx d 8 FF 9B 3A 74 84 7B 13 54 
2593.0345    1          18FFC7BCx     Rx d 8 00 CB C1 D6 00 11 20 00 
2593.0339    2          10FFF6F4x     Rx d 8 40 00 01 00 00 00 00 5E 
2593.0345    2          18FFE699x     Rx d 8 61 3C 79 15 A2 03 57 E5 
2593.035     2          18FFE899x     Rx d 8 00 00 50 21 03 14 00 15 
2593.0382    2          10FFE597x     Rx d 8 17 39 FA C8 74 15 98 3A 
2593.0388    2          10F01797x     Rx d 8 0B 60 3C 86 15 00 00 00 
2593.0441    2          18FFE699x     Rx d 8 60 3C 82 15 A0 03 57 F5 
2593.0447    2          18FFE899x     Rx d 8 00 00 4E 21 03 14 00 15 
2593.0482    2          10FFE597x     Rx d 8 17 49 FA C8 74 15 98 3A 
2593.0362    1          18FDC40Bx     Rx d 8 00 00 64 F3 FF FF FF FF 
2593.0383    1          0CF00203x     Rx d 8 01 40 0E 00 00 00 00 00 
2593.0388    1          18FEF100x     Rx d 8 00 7F 0C 00 00 00 00 00 
2593.0394    1          0CF00400x     Rx d 8 11 88 8F E0 15 00 00 8F 
2593.04      1          18FF20EFx     Rx d 8 F1 8F 20 07 7D EF 00 6D 
2593.0405    1          18F0090Bx     Rx d 8 FF FF FF FF FF FF FF 80 
2593.0411    1          18FA0517x     Rx d 8 02 CC 0F FD 0C F3 FF D8 
2593.0417    1          0CFE6CEEx     Rx d 8 FF FF FF FF FF FF 5A 0D 
2593.0422    1          08FE6E0Bx     Rx d 8 44 0D C4 0E C2 0C 30 0E 
2593.0428    1          0CFE6C17x     Rx d 8 FF FF FF FF FF FF 5A 0D 
2593.0434    1          0CFF82BCx     Rx d 8 76 AD C0 80 1E FF FF 4F 
2593.0439    1          0CFF84A0x     Rx d 8 C0 00 C3 00 00 7E 7D 25 
2593.0445    1          18FA0117x     Rx d 8 10 00 F0 C3 0F FF FF FF 
2593.045     1          18FF7097x     Rx d 8 00 7D 00 2D E9 7F 0C 30 
2593.0482    1          0CF00203x     Rx d 8 01 48 0E 00 00 00 00 00 
2593.0488    1          18FE4A03x     Rx d 8 00 01 00 00 00 00 00 00 
2593.0494    1          0CF00400x     Rx d 8 11 88 8E E0 15 00 00 8E 
2593.0499    1          18FF20EFx     Rx d 8 F1 8E 24 07 7D EF 00 6C 
2593.0505    1          0C040B97x     Rx d 8 7E 7D CC 00 FF FF FF F2 
2593.0511    1          18F0090Bx     Rx d 8 FF FF FF FF FF FF FF 80 
2593.0541    2          18FFE699x     Rx d 8 62 3C 75 15 9D 03 57 05 
2593.0546    2          18FFE899x     Rx d 8 00 00 4E 21 03 14 00 15 
2593.0582    2          10FFE597x     Rx d 8 17 59 FA C8 74 15 98 3A 
2593.0588    2          10F01797x     Rx d 8 0B 60 3C 82 15 00 00 00 
2593.0636    2          18F0099Ex     Rx d 8 83 00 7D 00 46 64 00 00 
2593.0517    1          18FA0517x     Rx d 8 03 FF FF FF FF FF FF FD 
2593.0537    1          0CFF83AAx     Rx d 8 FF 9B 33 74 84 52 13 64 
2593.0583    1          0CF00203x     Rx d 8 01 40 0E 00 00 00 00 00 
2593.0588    1          18FFFE97x     Rx d 8 00 00 00 00 00 00 00 00 
2593.0594    1          0CF00400x     Rx d 8 11 88 8F E0 15 00 00 8F 
2593.06      1          18FF20EFx     Rx d 8 F1 8F 20 07 7D EF 00 6C 
2593.0605    1          18F0090Bx     Rx d 8 FF FF FF FF FF FF FF 80 
2593.0611    1          18FA0617x     Rx d 8 30 00 FF FF FF FF FF FF 
2593.0617    1          18FF7097x     Rx d 8 00 7D 00 2D E9 89 0C 50 
2593.0622    1          08FE6E0Bx     Rx d 8 56 0D D4 0E CE 0C 38 0E 
2593.0628    1          0CFF82BCx     Rx d 8 76 85 C0 80 1E FF FF 5F 
2593.0634    1          0CFF84A0x     Rx d 8 C0 00 C3 00 00 7E 7D 36 
2593.0682    1          18EBFF00x     Rx d 8 02 FF FF FF FF FF FF FF 
2593.0688    1          18FF6597x     Rx d 8 01 00 00 00 00 00 00 00 
2593.0642    2          18F0089Ex     Rx d 8 87 5D 88 08 49 64 00 61 
2593.0647    2          18FFE899x     Rx d 8 00 00 4A 21 03 14 00 15 
2593.0653    2          18FFE699x     Rx d 8 62 3C 80 15 9B 03 57 15 
2593.0682    2          10FFE597x     Rx d 8 17 69 FA C8 7C 15 98 3A 
2593.0688    2          10FFE497x     Rx d 8 8F 00 00 00 02 00 00 26 
2593.0729    2          18FFE398x     Rx d 8 0F 00 08 94 0C 00 5F 80 
2593.0738    2          18FFC698x     Rx d 8 02 00 02 00 00 00 00 00 
2593.0743    2          18FFE699x     Rx d 8 63 3C 79 15 9B 03 57 25 
2593.0749    2          10FFECF4x     Rx d 8 29 34 36 7F CE B3 DD 83 
2593.0754    2          18FF5081x     Rx d 8 3D 33 A4 36 C7 DB 54 D2 
2593.076     2          18FF00EFx     Rx d 8 01 00 00 00 00 00 00 00 
2593.0766    2          18FFE899x     Rx d 8 00 00 4E 21 03 14 00 15 
2593.0771    2          18FFF1F4x     Rx d 8 DA 0B 98 17 9F 13 9C 02 
2593.0777    2          10FFF5F4x     Rx d 8 05 08 7D 8B 00 00 00 00 
2593.0783    2          18FFF298x     Rx d 8 08 14 F5 13 00 01 01 9E 
2593.0788    2          10FFE597x     Rx d 8 17 79 FA C8 84 15 98 3A 
2593.0794    2          10F01797x     Rx d 8 0B 62 3C 80 15 00 00 00 
2593.0694    1          0CF00203x     Rx d 8 01 50 0E 00 00 00 00 00 
2593.07      1          0CF00400x     Rx d 8 11 89 8E E0 15 00 00 8E 
2593.0705    1          18F0090Bx     Rx d 8 FF FF FF FF FF FF FF 80 
2593.0711    1          18FF20EFx     Rx d 8 F1 8E 28 07 7D EF 00 6C 
2593.0717    1          0C040B97x     Rx d 8 7E 7D CC 00 FF FF FF 03 
2593.0722    1          18FEBF0Bx     Rx d 8 0E 0E 72 88 6A 7F FF FF 
2593.0728    1          18FF8CA9x     Rx d 8 00 00 00 00 00 00 00 00 
2593.0739    1          0CFF83AAx     Rx d 8 FF 9A 29 74 84 27 14 74 
2593.0782    1          18EBFFEFx     Rx d 8 02 FF FF FF FF FF FF FF 
2593.0788    1          18FFEB97x     Rx d 8 62 3C 62 3C 00 00 00 00 
2593.0794    1          0CF00203x     Rx d 8 01 50 0E 00 00 00 00 00 
2593.0799    1          0CF00400x     Rx d 8 11 89 8F E0 15 00 00 8F 
2593.0805    1          18F0090Bx     Rx d 8 FF FF FF FF FF FF FF 80 
2593.0811    1          18FF20EFx     Rx d 8 F1 8F 28 07 7D EF 00 6C 
2593.0816    1          18FF7097x     Rx d 8 00 7D 00 2D E9 92 0C 70 
2593.0822    1          0CF00300x     Rx d 8 00 1E 00 00 00 00 00 00 
2593.0828    1          08FE6E0Bx     Rx d 8 5C 0D D0 0E D0 0C 40 0E 
2593.0833    1          0CFF82BCx     Rx d 8 76 5D C0 80 1E FF FF 6F 
2593.0839    1          0CFF84A0x     Rx d 8 C0 00 C3 00 00 7E 7D 47 
2593.084     2          18FFEDF4x     Rx d 8 F1 0C E9 0C 76 02 58 02 
2593.0846    2          10FFF6F4x     Rx d 8 40 00 01 00 00 00 00 5F 
2593.0851    2          18FFE699x     Rx d 8 63 3C 7F 15 97 03 57 35 
2593.0857    2          18FFE899x     Rx d 8 00 00 49 21 02 14 00 15 
2593.0882    2          10FFE597x     Rx d 8 17 89 FA C8 8C 15 98 3A 
2593.0939    2          18FFEEF4x     Rx d 8 B3 0C C5 07 62 02 00 00 
2593.0945    2          18FF04F4x     Rx d 8 00 00 00 00 00 00 00 00 
2593.0951    2          18FFE899x     Rx d 8 00 00 4D 21 02 14 00 15 
2593.0845    1          18FEF117x     Rx d 8 F3 8F 0D CF FF FF FF FF 
2593.085     1          18FFC7BCx     Rx d 8 00 CB C1 D6 00 11 20 00 
2593.0856    1          18FFC8A0x     Rx d 8 01 10 FF FF 00 FF FF FF 
2593.0862    1          18FFC9A0x     Rx d 8 C3 DF C8 FF FF FF FF FF 
2593.0882    1          0CF00203x     Rx d 8 01 58 0E 00 00 00 00 00 
2593.0888    1          18FFEA97x     Rx d 8 13 08 01 01 00 00 00 00 
2593.0894    1          0CF00400x     Rx d 8 11 89 8E E0 15 00 00 8E 
2593.0899    1          18FF20EFx     Rx d 8 F1 8E 2C 07 7D EF 00 6C 
2593.0905    1          0C040B97x     Rx d 8 7E 7D CC 00 FF FF FF 14 
2593.0911    1          0CFE6CEEx     Rx d 8 FF FF FF FF FF FF 8F 0D 
2593.0916    1          0CFE6C17x     Rx d 8 FF FF FF FF FF FF 8F 0D 
2593.0922    1          18F0090Bx     Rx d 8 FF FF FF FF FF FF FF 80 
2593.0928    1          18FA0117x     Rx d 8 10 00 F0 C3 0F FF FF FF 
2593.0937    1          0CFF83AAx     Rx d 8 FF 9A 23 74 83 FB 14 84 
2593.0962    1          0CEFEF0Bx     Rx d 8 CC FA 7D FF FF FF FF 20 
2593.0956    2          18FFE699x     Rx d 8 64 3C 80 15 98 03 57 45 
2593.0982    2          10FFE597x     Rx d 8 17 99 FA C8 94 15 98 3A 
2593.0988    2          10F01797x     Rx d 8 0B 63 3C 7F 15 00 00 00 
2593.1039    2          18F113F4x     Rx d 8 65 F1 0C 4C E9 0C 02 02 
2593.1044    2          18FFE699x     Rx d 8 65 3C 82 15 95 03 57 55 
2593.105     2          18FFE899x     Rx d 8 00 00 4A 21 02 14 00 15 
2593.1082    2          10FFE597x     Rx d 8 17 A9 FA C8 9C 15 98 3A 
2593.0983    1          0CF00203x     Rx d 8 01 58 0E 00 00 00 00 00 
2593.0988    1          18FF2997x     Rx d 8 0B 3C 0C 1E 00 E2 00 00 
2593.0994    1          0CF00400x     Rx d 8 11 89 8E E0 15 00 00 8E 
2593.0999    1          18FF20EFx     Rx d 8 F1 8E 2C 07 7D EF 00 6C 
2593.1005    1          18F0090Bx     Rx d 8 FF FF FF FF FF FF FF 80 
2593.1011    1          18FF7097x     Rx d 8 00 7D 00 2C E9 9B 0C 90 
2593.102     1          0CFF82BCx     Rx d 8 76 33 C0 80 1E FF FF 7F 
2593.1025    1          08FE6E0Bx     Rx d 8 64 0D C2 0E DC 0C 46 0E 
2593.1031    1          0CFF84A0x     Rx d 8 C0 00 C3 00 00 7E 7D 58 
2593.1082    1          0CF00203x     Rx d 8 01 60 0E 00 00 00 00 00 
2593.1088    1          0CF00400x     Rx d 8 11 89 8F E0 15 00 00 8F 
2593.1094    1          18FF20EFx     Rx d 8 F1 8F 30 07 7D EF 00 6C 
2593.1099    1          0C040B97x     Rx d 8 7E 7D CC 00 FF FF FF 25 
2593.1139    2          18F114F4x     Rx d 8 02 3F 1B 3C 01 01 FF FF 
2593.1144    2          18FFE699x     Rx d 8 66 3C 89 15 98 03 57 65 
2593.115     2          18FFE899x     Rx d 8 00 00 50 21 02 14 00 15 
2593.1182    2          10FFE597x     Rx d 8 17 B9 FA C8 A1 15 98 3A 
2593.1188    2          18FF3197x     Rx d 8 80 0A 7D 0A F3 01 F3 01 
2593.1193    2          10F01797x     Rx d 8 0B 65 3C 82 15 00 00 00 
2593.1199    2          10FFE497x     Rx d 8 8F 00 00 00 02 00 00 2B 
2593.1235    2          18FFE398x     Rx d 8 0F 00 3B 94 0C 00 5F 90 
2593.1241    2          18FFE699x     Rx d 8 67 3C 82 15 95 03 57 75 
2593.1247    2          18FFC698x     Rx d 8 00 00 04 00 00 00 00 00 
2593.1253    2          18FFE899x     Rx d 8 00 00 4D 21 02 14 00 15 
2593.1259    2          18FFF0F4x     Rx d 8 00 00 00 00 00 00 00 00 
2593.1265    2          10FFF5F4x     Rx d 8 05 08 7D 8B 00 00 00 00 
2593.1105    1          18F0090Bx     Rx d 8 FF FF FF FF FF FF FF 80 
2593.1137    1          0CFF83AAx     Rx d 8 FF 98 18 74 83 CE 15 94 
2593.1183    1          0CF00203x     Rx d 8 01 68 0E 00 00 00 00 00 
2593.1188    1          18FEA297x     Rx d 8 00 24 2C 00 F0 0A 00 00 
2593.1194    1          0CF00400x     Rx d 8 11 89 8F E0 15 00 00 8F 
2593.1199    1          18FF20EFx     Rx d 8 F1 8F 34 07 7D EF 00 6C 
2593.1205    1          0C00000Bx     Rx d 8 30 FF FF FA FF FF FF 47 
2593.1211    1          18F0090Bx     Rx d 8 FF FF FF FF FF FF FF 80 
2593.1217    1          18FF7097x     Rx d 8 00 7D 00 2D E9 A4 0C B0 
2593.1222    1          0CFF82BCx     Rx d 8 76 08 C0 80 1E FF FF 8F 
2593.1228    1          08FE6E0Bx     Rx d 8 68 0D CA 0E E4 0C 52 0E 
2593.1234    1          0CFF84A0x     Rx d 8 C0 00 C3 00 00 7E 7D 69 
2593.1239    1          18FEBF0Bx     Rx d 8 19 0E 72 88 6A 80 FF FF 
2593.1245    1          18F0010Bx     Rx d 8 00 00 C3 FF FF 01 FF F3 
2593.125     1          18FEF121x     Rx d 8 FF FF FF FF 00 FF FF FF 
2593.1256    1          18FF65ACx     Rx d 8 69 00 59 00 00 00 FF FF 
2593.1262    1          18FF8CA9x     Rx d 8 00 00 00 00 00 00 00 00 
2593.1268    1          18FE4F0Bx     Rx d 8 FF FF FF FF FF FF FF FF 
2593.1274    1          18FFA091x     Rx d 8 A0 F0 30 FC FF FF FF 46 
2593.127     2          18FFF298x     Rx d 8 3B 14 08 14 00 01 01 9F 
2593.1282    2          18FE8097x     Rx d 8 03 00 01 00 00 00 00 00 
2593.1288    2          18FF3097x     Rx d 8 D5 00 10 00 00 00 00 00 
2593.1294    2          10FFE597x     Rx d 8 17 C9 FA C8 A1 15 98 3A 
2593.1339    2          18FF3AF4x     Rx d 8 CC 06 02 00 41 40 6F 3B 
2593.1345    2          10FFF6F4x     Rx d 8 40 00 01 00 00 00 00 60 
2593.1351    2          18FFE899x     Rx d 8 00 00 54 21 02 14 00 15 
2593.1356    2          18FFE699x     Rx d 8 67 3C 8B 15 99 03 57 85 
2593.1382    2          10FFE597x     Rx d 8 17 D9 FA C8 A1 15 98 3A 
2593.1388    2          10F01797x     Rx d 8 0B 67 3C 82 15 00 00 00 
2593.1283    1          0CF00203x     Rx d 8 01 70 0E 00 00 00 00 00 
2593.1288    1          18F00503x     Rx d 8 7E E8 03 7E 00 00 00 00 
2593.1294    1          0CF00400x     Rx d 8 11 89 8F E0 15 00 00 8F 
2593.13      1          18FEAD0Bx     Rx d 8 00 00 00 00 FE FE FF FF 
2593.1306    1          18F0090Bx     Rx d 8 FF FF FF FF FF FF FF 80 
2593.1311    1          18FF20EFx     Rx d 8 F1 8F 38 07 7D EF 00 6C 
2593.1317    1          0C040B97x     Rx d 8 7E 7D CC 00 FF FF FF 36 
2593.1323    1          0CF00300x     Rx d 8 00 1E 00 00 00 00 00 00 
2593.1328    1          18FFC7BCx     Rx d 8 00 CB C1 D6 00 11 20 00 
2593.1334    1          18F001ACx     Rx d 8 FF FF FF FF FF FF FF F3 
2593.134     1          0CFF83AAx     Rx d 8 FF 98 11 74 83 9E 16 A4 
2593.1345    1          18FF8DACx     Rx d 8 00 0A 4A 00 00 00 00 00 
2593.1362    1          18FDC40Bx     Rx d 8 00 00 64 F3 FF FF FF FF 
2593.1383    1          0CF00203x     Rx d 8 01 78 0E 00 00 00 00 00 
2593.1388    1          18FEF100x     Rx d 8 00 AD 0C 00 00 00 00 00 
2593.1394    1          0CF00400x     Rx d 8 11 89 8F E0 15 00 00 8F 
2593.14      1          18FF20EFx     Rx d 8 F1 8F 3C 07 7D EF 00 6C 
2593.1405    1          18F0090Bx     Rx d 8 FF FF FF FF FF FF FF 80 
2593.1411    1          0CFE6CEEx     Rx d 8 FF FF FF FF FF FF 8F 0D 
2593.1417    1          0CFE6C17x     Rx d 8 FF FF FF FF FF FF 8F 0D 
2593.1422    1          08FE6E0Bx     Rx d 8 70 0D DE 0E EE 0C 5A 0E 
2593.1428    1          0CFF82BCx     Rx d 8 75 DC C0 80 1E FF FF 9F 
2593.1434    1          0CFF84A0x     Rx d 8 C0 00 C3 00 00 7E 7D 7A 
2593.1439    1          18FA0117x     Rx d 8 10 00 F0 C3 0F FF FF FF 
2593.1445    1          18FF7097x     Rx d 8 00 7D 00 2D E9 AD 0C D0 
2593.1483    1          0CF00203x     Rx d 8 01 78 0E 00 00 00 00 00 
2593.1488    1          18FE4A03x     Rx d 8 00 01 00 00 00 00 00 00 
2593.1494    1          0CF00400x     Rx d 8 11 89 8F E0 15 00 00 8F 
2593.15      1          18FF20EFx     Rx d 8 F1 8F 3C 07 7D EF 00 6C 
2593.1442    2          18FFE699x     Rx d 8 69 3C 81 15 97 03 57 95 
2593.1447    2          18FFE899x     Rx d 8 00 00 53 21 02 14 00 15 
2593.1482    2          10FFE597x     Rx d 8 17 E9 FA C8 A1 15 98 3A 
2593.1542    2          18FFE699x     Rx d 8 69 3C 8C 15 9D 03 57 A5 
2593.1547    2          18FFE899x     Rx d 8 00 00 5B 21 02 14 00 15 
2593.1582    2          10FFE597x     Rx d 8 17 F9 FA C8 9C 15 98 3A 
2593.1588    2          10F01797x     Rx d 8 0B 69 3C 81 15 00 00 00 
2593.1642    2          18FFE699x     Rx d 8 6A 3C 83 15 9D 03 57 B5 
2593.1647    2          18FFE899x     Rx d 8 00 00 59 21 01 14 00 15 
2593.1653    2          18F0089Ex     Rx d 8 80 61 88 07 49 64 00 61 
2593.1682    2          10FFE597x     Rx d 8 17 09 FA C8 98 15 98 3A 
2593.1688    2          10FFE497x     Rx d 8 8F 00 00 00 02 00 00 30 
2593.1741    2          18FFE398x     Rx d 8 0F 00 08 94 0C 00 5F A0 
2593.1747    2          10FFF5F4x     Rx d 8 05 08 7D 8B 00 00 00 00 
2593.1753    2          18FFC698x     Rx d 8 04 00 02 00 00 00 00 00 
2593.1505    1          0C040B97x     Rx d 8 7E 7D CC 00 FF FF FF 47 
2593.1511    1          18F0090Bx     Rx d 8 FF FF FF FF FF FF FF 80 
2593.1537    1          0CFF83AAx     Rx d 8 FF 98 0B 74 83 6D 17 B4 
2593.1583    1          0CF00203x     Rx d 8 01 88 0E 00 00 00 00 00 
2593.1589    1          18FFFE97x     Rx d 8 00 00 00 00 00 00 00 00 
2593.1594    1          0CF00400x     Rx d 8 11 88 8F E0 15 00 00 8F 
2593.16      1          18FF20EFx     Rx d 8 F1 8F 44 07 7D EF 00 6C 
2593.1605    1          18F0090Bx     Rx d 8 FF FF FF FF FF FF FF 80 
2593.1611    1          18FF7097x     Rx d 8 00 7D 00 2D E9 B7 0C F0 
2593.162     1          0CFF82BCx     Rx d 8 75 AE C0 80 1E FF FF AF 
2593.1625    1          08FE6E0Bx     Rx d 8 80 0D DE 0E FC 0C 60 0E 
2593.1631    1          0CFF84A0x     Rx d 8 C0 00 C3 00 00 7E 7D 8B 
2593.1683    1          0CF00203x     Rx d 8 01 88 0E 00 00 00 00 00 
2593.1689    1          18FF6597x     Rx d 8 01 00 00 00 00 00 00 00 
2593.1694    1          0CF00400x     Rx d 8 11 88 8F E0 15 00 00 8F 
2593.17      1          18FF20EFx     Rx d 8 F1 8F 44 07 7D EF 00 6C 
2593.1705    1          0C040B97x     Rx d 8 7E 7D CC 00 FF FF FF 58 
2593.1711    1          18F0090Bx     Rx d 8 FF FF FF FF FF FF FF 80 
2593.1717    1          18FF8CA9x     Rx d 8 00 00 00 00 00 00 00 00 
2593.1722    1          18FEBF0Bx     Rx d 8 33 0E 73 87 6A 80 FF FF 
2593.1741    1          0CFF83AAx     Rx d 8 FF 98 06 74 83 3A 17 C4 
2593.1783    1          0CF00203x     Rx d 8 01 90 0E 00 00 00 00 00 
2593.1788    1          18FFEB97x     Rx d 8 6A 3C 6A 3C 00 00 00 00 
2593.1794    1          0CF00400x     Rx d 8 11 88 8F E0 15 00 00 8F 
2593.1799    1          18FF20EFx     Rx d 8 F1 8F 48 07 7D EF 00 6C 
2593.1805    1          18F0090Bx     Rx d 8 FF FF FF FF FF FF FF 80 
2593.1811    1          18FF7097x     Rx d 8 00 7D 00 2D E9 C1 0C 10 
2593.1817    1          0CF00300x     Rx d 8 00 1B 00 00 00 00 00 00 
2593.1822    1          0CFF82BCx     Rx d 8 75 7D C0 80 1E FF FF BF 
2593.1828    1          08FE6E0Bx     Rx d 8 86 0D D4 0E 08 0D 66 0E 
2593.1834    1          0CFF84A0x     Rx d 8 C0 00 C3 00 00 7E 7D 9C 
2593.1839    1          18FEF117x     Rx d 8 F3 BD 0D CF FF FF FF FF 
2593.1845    1          18FFC7BCx     Rx d 8 00 CB C1 D6 00 11 20 00 
2593.1851    1          18FFC8A0x     Rx d 8 01 10 FF FF 00 FF FF FF 
2593.1758    2          18FFE699x     Rx d 8 6A 3C 8E 15 A3 03 57 C5 
2593.1764    2          18FF5081x     Rx d 8 3D 33 A4 36 C7 DB 54 D2 
2593.177     2          18FF00EFx     Rx d 8 01 00 00 00 00 00 00 00 
2593.1775    2          18FFE899x     Rx d 8 00 00 61 21 01 14 00 15 
2593.1781    2          18FFF298x     Rx d 8 08 14 0F 14 00 01 01 A0 
2593.1786    2          10F00697x     Rx d 8 56 61 64 56 00 00 00 05 
2593.1792    2          10FFE597x     Rx d 8 17 19 FA C8 94 15 98 3A 
2593.1797    2          10F01797x     Rx d 8 0B 6A 3C 83 15 00 00 00 
2593.1839    2          18F401A8x     Rx d 8 01 1B 00 00 6F 4F 00 00 
2593.1845    2          10FFF6F4x     Rx d 8 40 00 01 00 00 00 00 61 
2593.185     2          18FFE899x     Rx d 8 00 00 60 21 01 14 00 15 
2593.1856    2          18FFE699x     Rx d 8 6B 3C 8A 15 A5 03 57 D5 
2593.1882    2          10FFE597x     Rx d 8 17 29 FA C8 90 15 98 3A 
2593.1942    2          18FFE699x     Rx d 8 6A 3C 8F 15 A9 03 57 E5 
2593.1948    2          18FFE899x     Rx d 8 00 00 65 21 01 14 00 15 
2593.1982    2          10FFE597x     Rx d 8 17 39 FA C8 8B 15 98 3A 
2593.1988    2          10F01797x     Rx d 8 0B 6B 3C 8A 15 00 00 00 
2593.2042    2          18FFE699x     Rx d 8 6C 3C 8A 15 AD 03 57 F5 
2593.1856    1          18FFC9A0x     Rx d 8 C3 DF C8 FF FF FF FF FF 
2593.1883    1          0CF00203x     Rx d 8 01 90 0E 00 00 00 00 00 
2593.1888    1          18FFEA97x     Rx d 8 13 08 01 01 00 00 00 00 
2593.1894    1          0CF00400x     Rx d 8 11 88 8F E0 15 00 00 8F 
2593.1899    1          18FF20EFx     Rx d 8 F1 8F 48 07 7D EF 00 6C 
2593.1905    1          0C040B97x     Rx d 8 7E 7D CC 00 FF FF FF 69 
2593.1911    1          0CFE6CEEx     Rx d 8 FF FF FF FF FF FF BD 0D 
2593.1917    1          18F0090Bx     Rx d 8 FF FF FF FF FF FF FF 80 
2593.1922    1          0CFE6C17x     Rx d 8 FF FF FF FF FF FF BD 0D 
2593.1928    1          18FA0117x     Rx d 8 10 00 F0 C3 0F FF FF FF 
2593.1937    1          0CFF83AAx     Rx d 8 FF 97 02 74 83 06 18 D4 
2593.1962    1          0CEFEF0Bx     Rx d 8 CC FA 7D FF FF FF FF 31 
2593.1983    1          0CF00203x     Rx d 8 01 98 0E 00 00 00 00 00 
2593.1988    1          18FF2997x     Rx d 8 0B 3C 0B 1E 00 E2 00 00 
2593.1994    1          0CF00400x     Rx d 8 11 88 8F E0 15 00 00 8F 
2593.1999    1          18FF20EFx     Rx d 8 F1 8F 4C 07 7D EF 00 6C 
2593.2005    1          18F0090Bx     Rx d 8 FF FF FF FF FF FF FF 80 
2593.2011    1          18FF7097x     Rx d 8 00 7D 00 2D E9 CB 0C 30 
2593.202     1          0CFF82BCx     Rx d 8 75 4C C0 80 1E FF FF CF 
2593.2025    1          08FE6E0Bx     Rx d 8 8C 0D D6 0E 12 0D 6C 0E 
2593.2031    1          0CFF84A0x     Rx d 8 C0 00 C3 00 00 7E 7D AD 
2593.2083    1          0CF00203x     Rx d 8 01 90 0E 00 00 00 00 00 
2593.2088    1          0CF00400x     Rx d 8 11 89 8F E0 15 00 00 8F 
2593.2094    1          18FF20EFx     Rx d 8 F1 8F 48 07 7D EF 00 6C 
2593.2099    1          0C040B97x     Rx d 8 7E 7D CC 00 FF FF FF 8A 
2593.2105    1          18F0090Bx     Rx d 8 FF FF FF FF FF FF FF 80 
2593.2137    1          0CFF83AAx     Rx d 8 FF 97 F5 73 82 CF 19 E4 
2593.2048    2          18FFE899x     Rx d 8 00 00 65 21 01 14 00 15 
2593.2082    2          10FFE597x     Rx d 8 17 49 FA C8 93 15 98 3A 
2593.2142    2          18FFE699x     Rx d 8 6B 3C 91 15 AE 03 57 05 
2593.2148    2          18FFE899x     Rx d 8 00 00 65 21 01 14 00 15 
2593.2182    2          10FFE597x     Rx d 8 17 59 FA C8 8F 15 98 3A 
2593.2188    2          18FF3197x     Rx d 8 A0 09 9C 09 F3 01 F3 01 
2593.2193    2          10F01797x     Rx d 8 0B 6C 3C 8A 15 00 00 00 
2593.2199    2          10FFE497x     Rx d 8 8F 00 00 00 02 00 00 35 
2593.222     2          18FF0B97x     Rx d 8 0A 08 14 00 00 00 00 35 
2593.2242    2          18FFE699x     Rx d 8 6D 3C 8B 15 B1 03 57 15 
2593.2248    2          18FFE398x     Rx d 8 0F 00 11 94 0C 00 5F B0 
2593.2253    2          10FFF5F4x     Rx d 8 05 08 7D 8B 00 00 00 00 
2593.2259    2          18FFC698x     Rx d 8 04 00 4A 00 00 00 00 00 
2593.2265    2          18FFE899x     Rx d 8 00 00 6B 21 01 14 00 15 
2593.227     2          18FFF298x     Rx d 8 11 14 F3 13 00 01 01 A1 
2593.2282    2          10FFE597x     Rx d 8 17 69 FA C8 8B 15 98 3A 
2593.2288    2          18FF3097x     Rx d 8 D5 00 10 00 00 00 00 00 
2593.2321    2          18FEE097x     Rx d 8 00 00 00 00 50 00 00 00 
2593.2339    2          10FFF6F4x     Rx d 8 40 00 01 00 00 00 00 62 
2593.2345    2          18FFE699x     Rx d 8 6C 3C 92 15 AF 03 57 25 
2593.235     2          18FFE899x     Rx d 8 00 00 65 21 01 14 00 15 
2593.2182    1          18EBFF00x     Rx d 8 03 FF FF FF FF FF F0 0A 
2593.2188    1          18FEA297x     Rx d 8 00 24 2C 00 F0 0A 00 00 
2593.2194    1          0CF00203x     Rx d 8 01 A0 0E 00 00 00 00 00 
2593.2199    1          0CF00400x     Rx d 8 11 88 8F E0 15 00 00 8F 
2593.2205    1          0C00000Bx     Rx d 8 30 FF FF FA FF FF FF 30 
2593.2211    1          18F0090Bx     Rx d 8 FF FF FF FF FF FF FF 80 
2593.2217    1          18FF20EFx     Rx d 8 F1 8F 50 07 7D EF 00 6C 
2593.2222    1          0CFF82BCx     Rx d 8 75 18 C0 80 1E FF FF DF 
2593.2228    1          08FE6E0Bx     Rx d 8 86 0D E6 0E 1A 0D 6C 0E 
2593.2234    1          0CFF84A0x     Rx d 8 C0 00 C3 00 00 7E 7D BE 
2593.2239    1          18FEBF0Bx     Rx d 8 36 0E 72 88 6C 80 FF FF 
2593.2245    1          18F0010Bx     Rx d 8 00 00 C3 FF FF 01 FF F3 
2593.225     1          18FEF121x     Rx d 8 FF FF FF FF 00 FF FF FF 
2593.2256    1          18FFA091x     Rx d 8 A0 F0 30 FC FF FF FF 46 
2593.2262    1          18FFFB97x     Rx d 8 14 00 00 00 88 13 0A 18 
2593.2268    1          18FE4F0Bx     Rx d 8 FF FF FF FF FF FF FF FF 
2593.2273    1          18FF7097x     Rx d 8 00 7D 00 2D E9 D4 0C 50 
2593.2279    1          18FF8CA9x     Rx d 8 00 00 00 00 00 00 00 00 
2593.2285    1          18F00503x     Rx d 8 7E E8 03 7E 00 00 00 00 
2593.2291    1          0CF00203x     Rx d 8 01 98 0E 00 00 00 00 00 
2593.2296    1          0CF00400x     Rx d 8 11 88 8F E0 15 00 00 8F 
2593.2302    1          18FEAD0Bx     Rx d 8 00 00 00 00 FE FE FF FF 
2593.2308    1          18F0090Bx     Rx d 8 FF FF FF FF FF FF FF 80 
2593.2313    1          18FF20EFx     Rx d 8 F1 8F 4C 07 7D EF 00 6C 
2593.2319    1          0C040B97x     Rx d 8 7E 7D CC 00 FF FF FF 9B 
2593.2325    1          18FFC7BCx     Rx d 8 00 CB C1 D6 00 11 20 00 
2593.233     1          18FFF897x     Rx d 8 29 14 36 7F F3 3D 3C 04 
2593.2336    1          0CF00300x     Rx d 8 00 1B 00 00 00 00 00 00 
2593.2342    1          18EBFFEFx     Rx d 8 03 FF FF FF FF FF F0 0A 
2593.2348    1          18F001ACx     Rx d 8 FF FF FF FF FF FF FF F3 
2593.2354    1          18FEDFEFx     Rx d 8 7D 00 00 00 7D 00 00 00 
2593.2359    1          0CFF83AAx     Rx d 8 FF 96 E4 73 82 99 1A F4 
2593.2365    1          18FDC40Bx     Rx d 8 00 00 64 F3 FF FF FF FF 
2593.2382    2          10FFE597x     Rx d 8 17 79 FA C8 87 15 98 3A 
2593.2388    2          10F01797x     Rx d 8 0B 6D 3C 8B 15 00 00 00 
2593.2421    2          18FF3297x     Rx d 8 88 19 00 FF 01 00 00 00 
2593.2442    2          18FFE699x     Rx d 8 6D 3C 88 15 B1 03 57 35 
2593.2448    2          18FFE899x     Rx d 8 00 00 6C 21 01 14 00 15 
2593.2482    2          10FFE597x     Rx d 8 17 89 FA C8 83 15 98 3A 
2593.2383    1          0CF00203x     Rx d 8 01 A8 0E 00 00 00 00 00 
2593.2388    1          18FEF100x     Rx d 8 00 DD 0C 00 00 00 00 00 
2593.2394    1          0CF00400x     Rx d 8 11 88 8F E0 15 00 00 8F 
2593.24      1          18FF20EFx     Rx d 8 F1 8F 54 07 7D EF 00 6C 
2593.2405    1          0CFE6CEEx     Rx d 8 FF FF FF FF FF FF BD 0D 
2593.2411    1          18F0090Bx     Rx d 8 FF FF FF FF FF FF FF 80 
2593.2417    1          0CFE6C17x     Rx d 8 FF FF FF FF FF FF BD 0D 
2593.2422    1          08FE6E0Bx     Rx d 8 9A 0D F4 0E 28 0D 74 0E 
2593.2428    1          0CFF82BCx     Rx d 8 74 E3 C0 80 1E FF FF EF 
2593.2434    1          0CFF84A0x     Rx d 8 C0 00 C3 00 00 7E 7D CF 
2593.2439    1          18FA0117x     Rx d 8 10 00 F0 C3 0F FF FF FF 
2593.2445    1          18FFF797x     Rx d 8 48 49 00 00 50 C3 62 02 
2593.245     1          18FF7097x     Rx d 8 00 7D 00 2D E9 DD 0C 70 
2593.2483    1          0CF00203x     Rx d 8 01 A0 0E 00 00 00 00 00 
2593.2488    1          18FE4A03x     Rx d 8 00 01 00 00 00 00 00 00 
2593.2494    1          0CF00400x     Rx d 8 11 88 8F E0 15 00 00 8F 
2593.25      1          18FF20EFx     Rx d 8 F1 8F 50 07 7D EF 00 6C 
2593.2505    1          0C040B97x     Rx d 8 7E 7D CC 00 FF FF FF AC 
2593.2511    1          18F0090Bx     Rx d 8 FF FF FF FF FF FF FF 80 
2593.2537    1          0CFF83AAx     Rx d 8 FF 96 D2 73 82 62 1A 04 
2593.2542    2          18FFE699x     Rx d 8 6E 3C 8D 15 AD 03 57 45 
2593.2548    2          18FFE899x     Rx d 8 00 00 64 21 00 14 00 15 
2593.2582    2          10FFE597x     Rx d 8 17 99 FA C8 7E 15 98 3A 
2593.2588    2          10F01797x     Rx d 8 0B 6D 3C 88 15 00 00 00 
2593.2642    2          18FFE699x     Rx d 8 6E 3C 88 15 AF 03 57 55 
2593.2648    2          18FFE899x     Rx d 8 00 00 69 21 01 14 00 15 
2593.266     2          18F0089Ex     Rx d 8 81 64 88 07 49 64 00 61 
2593.257     1          1865F0D1x     Rx d 8 0D 00 00 00 00 00 00 00 
2593.2583    1          0CF00203x     Rx d 8 01 A8 0E 00 00 00 00 00 
2593.2589    1          18FFFE97x     Rx d 8 00 00 00 00 00 00 00 00 
2593.2594    1          0CF00400x     Rx d 8 11 88 8F E0 15 00 00 8F 
2593.26      1          18FF20EFx     Rx d 8 F1 8F 54 07 7D EF 00 6C 
2593.2605    1          18F0090Bx     Rx d 8 FF FF FF FF FF FF FF 80 
2593.2611    1          18FA0617x     Rx d 8 30 00 FF FF FF FF FF FF 
2593.2617    1          18FF7097x     Rx d 8 00 7D 00 2D E9 E6 0C 90 
2593.2622    1          08FE6E0Bx     Rx d 8 92 0D E4 0E 2E 0D 7E 0E 
2593.2628    1          0CFF82BCx     Rx d 8 74 AD C0 80 1E FF FF FF 
2593.2634    1          0CFF84A0x     Rx d 8 C0 00 C3 00 00 7E 7D D0 
2593.2683    1          0CF00203x     Rx d 8 01 B0 0E 00 00 00 00 00 
2593.2689    1          18FF6597x     Rx d 8 01 00 00 00 00 00 00 00 
2593.2694    1          0CF00400x     Rx d 8 11 88 8F E0 15 00 00 8F 
2593.2669    2          18FFC13Ax     Rx d 8 04 3C 3D 6B 17 00 00 00 
2593.2682    2          10FFE597x     Rx d 8 17 A9 FA C8 79 15 98 3A 
2593.2688    2          10FFE497x     Rx d 8 8F 00 00 00 02 00 00 3A 
2593.2742    2          18FFE699x     Rx d 8 6F 3C 84 15 AA 03 57 65 
2593.2748    2          10FFECF4x     Rx d 8 29 34 DF 7E CE B3 DD A3 
2593.2754    2          10FFF5F4x     Rx d 8 05 08 7D 8B 00 00 00 00 
2593.2759    2          18FF5081x     Rx d 8 3D 33 A4 36 C7 DB 54 D2 
2593.2765    2          18FF00EFx     Rx d 8 01 00 00 00 00 00 00 00 
2593.2771    2          18FFE398x     Rx d 8 0F 00 39 94 0C 00 5F C0 
2593.2776    2          18FFE899x     Rx d 8 00 00 62 21 00 14 00 15 
2593.2782    2          18FFC698x     Rx d 8 45 00 25 00 00 00 00 00 
2593.2788    2          10FFE597x     Rx d 8 17 B9 FA C8 74 15 98 3A 
2593.2793    2          10F01797x     Rx d 8 0B 6E 3C 88 15 00 00 00 
2593.2799    2          18FFF298x     Rx d 8 39 14 24 14 00 01 01 A2 
2593.27      1          18FF20EFx     Rx d 8 F1 8F 58 07 7D EF 00 6C 
2593.2706    1          0C040B97x     Rx d 8 7E 7D CC 00 FF FF FF BD 
2593.2711    1          18F0090Bx     Rx d 8 FF FF FF FF FF FF FF 80 
2593.2717    1          18FF8CA9x     Rx d 8 00 00 00 00 00 00 00 00 
2593.2723    1          18FEBF0Bx     Rx d 8 45 0E 73 87 6C 80 FF FF 
2593.2738    1          0CFF83AAx     Rx d 8 FF 98 C2 73 82 2A 1A 14 
2593.2783    1          0CF00203x     Rx d 8 01 B0 0E 00 00 00 00 00 
2593.2788    1          18FFEB97x     Rx d 8 6E 3C 6E 3C 00 00 00 00 
2593.2794    1          0CF00400x     Rx d 8 11 88 8F E0 15 00 00 8F 
2593.2799    1          18FF20EFx     Rx d 8 F1 8F 58 07 7D EF 00 6C 
2593.2805    1          18F0090Bx     Rx d 8 FF FF FF FF FF FF FF 80 
2593.2811    1          18FF7097x     Rx d 8 00 7D 00 2D E9 EF 0C B0 
2593.2817    1          0CF00300x     Rx d 8 00 1B 00 00 00 00 00 00 
2593.2822    1          0CFF82BCx     Rx d 8 74 76 C0 80 1E FF FF 0F 
2593.2828    1          08FE6E0Bx     Rx d 8 A6 0D E8 0E 34 0D 82 0E 
2593.2833    1          0CFF84A0x     Rx d 8 C0 00 C3 00 00 7E 7D E1 
2593.2839    1          18FEF117x     Rx d 8 F3 E3 0D CF FF FF FF FF 
2593.2845    1          18FFC7BCx     Rx d 8 00 CB C1 D6 00 11 20 00 
2593.2851    1          18FFC8A0x     Rx d 8 01 10 FF FF 00 FF FF FF 
2593.2842    2          18FFE699x     Rx d 8 6F 3C 8C 15 AB 03 57 75 
2593.2848    2          18FFE899x     Rx d 8 00 00 68 21 01 14 00 15 
2593.2854    2          10FFF6F4x     Rx d 8 40 00 01 00 00 00 00 63 
2593.2882    2          10FFE597x     Rx d 8 17 C9 FA C8 74 15 98 3A 
2593.2943    2          18FFE699x     Rx d 8 70 3C 80 15 A4 03 57 85 
2593.2948    2          18FFE899x     Rx d 8 00 00 5F 21 00 14 00 15 
2593.2982    2          10FFE597x     Rx d 8 17 D9 FA C8 74 15 98 3A 
2593.2988    2          10F01797x     Rx d 8 0B 6F 3C 8C 15 00 00 00 
2593.2856    1          18FFC9A0x     Rx d 8 C3 DF C8 FF FF FF FF FF 
2593.2883    1          0CF00203x     Rx d 8 01 B8 0E 00 00 00 00 00 
2593.2888    1          18FFEA97x     Rx d 8 13 08 01 01 00 00 00 00 
2593.2894    1          0CF00400x     Rx d 8 11 88 8F E0 15 00 00 8F 
2593.2899    1          18FF20EFx     Rx d 8 F1 8F 5C 07 7D EF 00 6C 
2593.2905    1          0C040B97x     Rx d 8 7E 7D CC 00 FF FF FF CE 
2593.2911    1          0CFE6CEEx     Rx d 8 FF FF FF FF FF FF E3 0D 
2593.2917    1          0CFE6C17x     Rx d 8 FF FF FF FF FF FF E3 0D 
2593.2922    1          18F0090Bx     Rx d 8 FF FF FF FF FF FF FF 80 
2593.2928    1          18FA0117x     Rx d 8 10 00 F0 C3 0F FF FF FF 
2593.2937    1          0CFF83AAx     Rx d 8 FF 9B BB 73 81 F4 1B 24 
2593.2962    1          0CEFEF0Bx     Rx d 8 CC FA 7D FF FF FF FF 42 
2593.2983    1          0CF00203x     Rx d 8 01 B8 0E 00 00 00 00 00 
2593.2988    1          18FF2997x     Rx d 8 0B 3C 0B 1E 00 E2 00 00 
2593.2994    1          0CF00400x     Rx d 8 11 88 8F E0 15 00 00 8F 
2593.2999    1          18FF20EFx     Rx d 8 F1 8F 5C 07 7D EF 00 6C 
2593.3043    2          18FFE699x     Rx d 8 6F 3C 8F 15 A6 03 57 95 
2593.3049    2          18FFE899x     Rx d 8 00 00 66 21 01 14 00 15 
2593.3082    2          10FFE597x     Rx d 8 17 E9 FA C8 74 15 98 3A 
2593.3143    2          18FFE699x     Rx d 8 71 3C 80 15 A0 03 57 A5 
2593.3005    1          18F0090Bx     Rx d 8 FF FF FF FF FF FF FF 80 
2593.3011    1          18FF7097x     Rx d 8 00 7D 00 2E E9 F7 0C D0 
2593.302     1          0CFF82BCx     Rx d 8 74 3F C0 80 1E FF FF 1F 
2593.3025    1          08FE6E0Bx     Rx d 8 A6 0D F4 0E 46 0D 8E 0E 
2593.3031    1          0CFF84A0x     Rx d 8 C0 00 C3 00 00 7E 7D F2 
2593.3083    1          0CF00203x     Rx d 8 01 C0 0E 00 00 00 00 00 
2593.3088    1          0CF00400x     Rx d 8 11 88 8F E0 15 00 00 8F 
2593.3094    1          18FF20EFx     Rx d 8 F1 8F 60 07 7D EF 00 6C 
2593.31      1          0C040B97x     Rx d 8 7E 7D CC 00 FF FF FF DF 
2593.3105    1          18F0090Bx     Rx d 8 FF FF FF FF FF FF FF 80 
2593.3137    1          0CFF83AAx     Rx d 8 FF 9D B8 73 81 C1 1A 34 
2593.3183    1          0CF00203x     Rx d 8 01 B8 0E 00 00 00 00 00 
2593.3188    1          18FEA297x     Rx d 8 00 24 2C 00 F0 0A 00 00 
2593.3194    1          0CF00400x     Rx d 8 11 88 8F E0 15 00 00 8F 
2593.32      1          18FF20EFx     Rx d 8 F1 8F 5C 07 7D EF 00 6C 
2593.3205    1          0C00000Bx     Rx d 8 30 FF FF FA FF FF FF 41 
2593.3211    1          18F0090Bx     Rx d 8 FF FF FF FF FF FF FF 80 
2593.3217    1          18FF7097x     Rx d 8 00 7D 00 2E E9 00 0D F0 
2593.3149    2          18FFE899x     Rx d 8 00 00 5C 21 01 14 00 15 
2593.3182    2          10FFE597x     Rx d 8 17 F9 FA C8 74 15 98 3A 
2593.3188    2          18FF3197x     Rx d 8 A0 09 9C 09 F3 01 F3 01 
2593.3193    2          10F01797x     Rx d 8 0B 6F 3C 8F 15 00 00 00 
2593.3199    2          10FFE497x     Rx d 8 8F 00 00 00 02 00 00 3F 
2593.3243    2          18FFE699x     Rx d 8 70 3C 8A 15 A2 03 57 B5 
2593.3249    2          18FFE899x     Rx d 8 00 00 62 21 01 14 00 15 
2593.3255    2          10FFF5F4x     Rx d 8 05 08 7D 8B 00 00 00 00 
2593.326     2          18FFE398x     Rx d 8 0F 00 F3 93 0C 00 5F D0 
2593.3268    2          18FFC698x     Rx d 8 00 00 02 00 00 00 00 00 
2593.3278    2          18FFF298x     Rx d 8 F3 13 F3 13 00 01 01 A3 
2593.3283    2          18FF3097x     Rx d 8 D5 00 10 00 00 00 00 00 
2593.3289    2          10FFE597x     Rx d 8 17 09 FA C8 7C 15 98 3A 
2593.3323    2          18F00A9Ex     Rx d 8 82 46 27 02 5F 28 00 6B 
2593.3339    2          10FFF6F4x     Rx d 8 40 00 01 00 00 00 00 64 
2593.3345    2          18FFE699x     Rx d 8 72 3C 7B 15 9C 03 57 C5 
2593.335     2          18FFE899x     Rx d 8 00 00 5C 21 01 14 00 15 
2593.3382    2          10FFE597x     Rx d 8 17 19 FA C8 84 15 98 3A 
2593.3388    2          10F01797x     Rx d 8 0B 70 3C 8A 15 00 00 00 
2593.3443    2          18FFE699x     Rx d 8 71 3C 82 15 9C 03 57 D5 
2593.3222    1          08FE6E0Bx     Rx d 8 AE 0D FE 0E 50 0D 96 0E 
2593.3228    1          0CFF82BCx     Rx d 8 74 08 C0 80 1E FF FF 2F 
2593.3234    1          0CFF84A0x     Rx d 8 C0 00 C3 00 00 7E 7D 03 
2593.3239    1          18FEBF0Bx     Rx d 8 56 0E 73 87 6D 81 FF FF 
2593.3245    1          18F0010Bx     Rx d 8 00 00 C3 FF FF 01 FF F3 
2593.3251    1          18FEF121x     Rx d 8 FF FF FF FF 00 FF FF FF 
2593.3257    1          18FF8CA9x     Rx d 8 00 00 00 00 00 00 00 00 
2593.3262    1          18FE4F0Bx     Rx d 8 FF FF FF FF FF FF FF FF 
2593.3268    1          18FFA091x     Rx d 8 A0 F0 30 FC FF FF FF 46 
2593.3283    1          0CF00203x     Rx d 8 01 C8 0E 00 00 00 00 00 
2593.3288    1          18F00503x     Rx d 8 7E E8 03 7E 00 00 00 00 
2593.3294    1          0CF00400x     Rx d 8 11 89 8F E0 15 00 00 8F 
2593.33      1          18FEAD0Bx     Rx d 8 00 00 00 00 FE FE FF FF 
2593.3306    1          18F0090Bx     Rx d 8 FF FF FF FF FF FF FF 80 
2593.3311    1          18FA1117x     Rx d 8 01 00 00 00 00 3C 00 00 
2593.3317    1          18FF20EFx     Rx d 8 F1 8F 64 07 7D EF 00 6C 
2593.3322    1          0C040B97x     Rx d 8 7E 7D CC 00 FF FF FF D0 
2593.3328    1          0CF00300x     Rx d 8 00 1E 00 00 00 00 00 00 
2593.3334    1          18F001ACx     Rx d 8 FF FF FF FF FF FF FF F3 
2593.334     1          18FF8DACx     Rx d 8 00 0A 4A 00 00 00 00 00 
2593.3345    1          0CFF83AAx     Rx d 8 FF 9D B8 73 81 91 1A 44 
2593.3351    1          18FFC7BCx     Rx d 8 00 CB C1 D6 00 11 20 00 
2593.3362    1          18FDC40Bx     Rx d 8 00 00 64 F3 FF FF FF FF 
2593.3383    1          0CF00203x     Rx d 8 01 C0 0E 00 00 00 00 00 
2593.3389    1          18FEF100x     Rx d 8 00 08 0D 00 00 00 00 00 
2593.3394    1          0CF00400x     Rx d 8 11 89 8F E0 15 00 00 8F 
2593.34      1          18FF20EFx     Rx d 8 F1 8F 60 07 7D EF 00 6C 
2593.3405    1          0CFE6CEEx     Rx d 8 FF FF FF FF FF FF E3 0D 
2593.3411    1          0CFE6C17x     Rx d 8 FF FF FF FF FF FF E3 0D 
2593.3417    1          18F0090Bx     Rx d 8 FF FF FF FF FF FF FF 80 
2593.3423    1          08FE6E0Bx     Rx d 8 B4 0D F4 0E 56 0D 96 0E 
2593.3428    1          0CFF82BCx     Rx d 8 73 D3 C0 80 1E FF FF 3F 
2593.3434    1          0CFF84A0x     Rx d 8 C0 00 C3 00 00 7E 7D 14 
2593.344     1          18FA0117x     Rx d 8 10 00 F0 C3 0F FF FF FF 
2593.3445    1          18FF7097x     Rx d 8 00 7D 00 2D E9 08 0D 10 
2593.3483    1          0CF00203x     Rx d 8 01 D0 0E 00 00 00 00 00 
2593.3488    1          18FE4A03x     Rx d 8 00 01 00 00 00 00 00 00 
2593.3494    1          0CF00400x     Rx d 8 11 89 8E E0 15 00 00 8E 
2593.35      1          18FF20EFx     Rx d 8 F1 8E 68 07 7D EF 00 6C 
2593.3505    1          0C040B97x     Rx d 8 7E 7D CC 00 FF FF FF E1 
2593.3449    2          18FFE899x     Rx d 8 00 00 5E 21 02 14 00 15 
2593.3482    2          10FFE597x     Rx d 8 17 29 FA C8 8C 15 98 3A 
2593.3544    2          18FFE699x     Rx d 8 73 3C 75 15 98 03 57 E5 
2593.3549    2          18FFE899x     Rx d 8 00 00 5C 21 02 14 00 15 
2593.3582    2          10FFE597x     Rx d 8 17 39 FA C8 94 15 98 3A 
2593.3588    2          10F01797x     Rx d 8 0B 71 3C 82 15 00 00 00 
2593.3644    2          18FFE699x     Rx d 8 72 3C 82 15 99 03 57 F5 
2593.3649    2          18FFE899x     Rx d 8 00 00 5D 21 02 14 00 15 
2593.3672    2          18F0089Ex     Rx d 8 82 61 88 07 49 64 00 61 
2593.3682    2          10FFE597x     Rx d 8 17 49 FA C8 9C 15 98 3A 
2593.3688    2          10FFE497x     Rx d 8 8F 00 00 00 02 00 00 44 
2593.3742    2          10FFF5F4x     Rx d 8 05 08 7D 8B 00 00 00 00 
2593.3748    2          18FFE699x     Rx d 8 74 3C 75 15 97 03 57 05 
2593.3753    2          18FF5081x     Rx d 8 3D 33 A4 36 C7 DB 54 D2 
2593.3759    2          18FF00EFx     Rx d 8 01 00 00 00 00 00 00 00 
2593.3765    2          18FFE899x     Rx d 8 00 00 5F 21 02 14 00 15 
2593.3771    2          18FFE398x     Rx d 8 0F 00 2D 94 0C 00 5F E0 
2593.3776    2          18FFC698x     Rx d 8 04 00 02 00 00 00 00 00 
2593.3782    2          10FFE597x     Rx d 8 17 59 FA C8 A1 15 98 3A 
2593.3788    2          10F00697x     Rx d 8 56 61 64 56 00 00 00 05 
2593.3511    1          18F0090Bx     Rx d 8 FF FF FF FF FF FF FF 80 
2593.3537    1          0CFF83AAx     Rx d 8 FF 9F BF 73 81 63 19 54 
2593.3583    1          0CF00203x     Rx d 8 01 C8 0E 00 00 00 00 00 
2593.3589    1          18FFFE97x     Rx d 8 00 00 00 00 00 00 00 00 
2593.3594    1          0CF00400x     Rx d 8 11 89 8F E0 15 00 00 8F 
2593.36      1          18FF20EFx     Rx d 8 F1 8F 64 07 7D EF 00 6C 
2593.3605    1          18F0090Bx     Rx d 8 FF FF FF FF FF FF FF 80 
2593.3611    1          18FF7097x     Rx d 8 00 7D 00 2D E9 10 0D 30 
2593.362     1          0CFF82BCx     Rx d 8 73 A1 C0 80 1E FF FF 4F 
2593.3625    1          08FE6E0Bx     Rx d 8 BA 0D F2 0E 5E 0D 9A 0E 
2593.3631    1          0CFF84A0x     Rx d 8 C0 00 C3 00 00 7E 7D 25 
2593.3682    1          18EBFF00x     Rx d 8 04 FF FF FF FF FF FF FF 
2593.3688    1          18FF6597x     Rx d 8 01 00 00 00 00 00 00 00 
2593.3694    1          0CF00203x     Rx d 8 01 D8 0E 00 00 00 00 00 
2593.37      1          0CF00400x     Rx d 8 11 89 8E E0 15 00 00 8E 
2593.3706    1          18F0090Bx     Rx d 8 FF FF FF FF FF FF FF 80 
2593.3711    1          18FF20EFx     Rx d 8 F1 8E 6C 07 7D EF 00 6C 
2593.3717    1          0C040B97x     Rx d 8 7E 7D CC 00 FF FF FF F2 
2593.3723    1          18FF8CA9x     Rx d 8 00 00 00 00 00 00 00 00 
2593.3728    1          18FEBF0Bx     Rx d 8 5A 0E 74 86 6E 81 FF FF 
2593.3737    1          0CFF83AAx     Rx d 8 FF A0 CA 73 81 39 17 64 
2593.3782    1          18EBFFEFx     Rx d 8 04 FF FF FF FF FF FF FF 
2593.3788    1          18FFEB97x     Rx d 8 72 3C 72 3C 00 00 00 00 
2593.3794    1          0CF00203x     Rx d 8 01 D0 0E 00 00 00 00 00 
2593.3799    1          0CF00400x     Rx d 8 11 89 8F E0 15 00 00 8F 
2593.3805    1          18F0090Bx     Rx d 8 FF FF FF FF FF FF FF 80 
2593.3811    1          18FEF117x     Rx d 8 F3 10 0E CF FF FF FF FF 
2593.3816    1          18FF20EFx     Rx d 8 F1 8F 68 07 7D EF 00 6C 
2593.3822    1          0CFF82BCx     Rx d 8 73 71 C0 80 1E FF FF 5F 
2593.3828    1          08FE6E0Bx     Rx d 8 C6 0D 12 0F 6A 0D A6 0E 
2593.3833    1          0CFF84A0x     Rx d 8 C0 00 C3 00 00 7E 7D 36 
2593.3839    1          18FF7097x     Rx d 8 00 7D 00 2D E9 18 0D 50 
2593.3845    1          0CF00300x     Rx d 8 00 1E 00 00 00 00 00 00 
2593.385     1          18FFC7BCx     Rx d 8 00 CB C1 D6 00 11 20 00 
2593.3856    1          18FE9AA9x     Rx d 8 00 00 00 00 00 00 00 00 
2593.3862    1          18FFC8A0x     Rx d 8 01 10 FF FF 00 FF FF FF 
2593.3868    1          18FFC9A0x     Rx d 8 C3 DF C8 FF FF FF FF FF 
2593.3883    1          0CF00203x     Rx d 8 01 E0 0E 00 00 00 00 00 
2593.3888    1          18FFEA97x     Rx d 8 13 08 01 01 00 00 00 00 
2593.3894    1          0CF00400x     Rx d 8 11 89 8E E0 15 00 00 8E 
2593.39      1          18FF20EFx     Rx d 8 F1 8E 70 07 7D EF 00 6C 
2593.3905    1          0C040B97x     Rx d 8 7E 7D CC 00 FF FF FF 03 
2593.3911    1          0CFE6CEEx     Rx d 8 FF FF FF FF FF FF 10 0E 
2593.3793    2          10F01797x     Rx d 8 0B 72 3C 82 15 00 00 00 
2593.3799    2          18FFF298x     Rx d 8 2D 14 01 14 00 01 01 A4 
2593.3805    2          10FFF39Fx     Rx d 8 02 50 C3 04 02 00 00 5C 
2593.3839    2          10FFF6F4x     Rx d 8 40 00 01 00 00 00 00 65 
2593.3845    2          18FFE699x     Rx d 8 74 3C 88 15 99 03 57 15 
2593.385     2          18FFE899x     Rx d 8 00 00 62 21 02 14 00 15 
2593.3882    2          10FFE597x     Rx d 8 17 69 FA C8 A1 15 98 3A 
2593.3944    2          18FFE699x     Rx d 8 76 3C 80 15 9A 03 57 25 
2593.3949    2          18FFE899x     Rx d 8 00 00 65 21 02 14 00 15 
2593.3982    2          10FFE597x     Rx d 8 17 79 FA C8 A1 15 98 3A 
2593.3988    2          10F01797x     Rx d 8 0B 74 3C 88 15 00 00 00 
2593.4044    2          18FFE699x     Rx d 8 76 3C 8B 15 9D 03 57 35 
2593.405     2          18FFE899x     Rx d 8 00 00 69 21 03 14 00 15 
2593.4082    2          10FFE597x     Rx d 8 17 89 FA C8 A1 15 98 3A 
2593.4144    2          18FFE699x     Rx d 8 78 3C 89 15 A1 03 57 45 
2593.415     2          18FFE899x     Rx d 8 00 00 6F 21 03 14 00 15 
2593.4182    2          10FFE597x     Rx d 8 17 99 FA C8 A1 15 98 3A 
2593.4188    2          18FF3197x     Rx d 8 80 0A 7D 0A F3 01 F3 01 
2593.4193    2          10F01797x     Rx d 8 0B 76 3C 8B 15 00 00 00 
2593.4199    2          10FFE497x     Rx d 8 8F 00 00 00 02 00 00 49 
2593.4244    2          18FFE699x     Rx d 8 78 3C 8D 15 A4 03 57 55 
2593.425     2          10FFF5F4x     Rx d 8 05 08 7D 8B 00 00 00 00 
2593.4256    2          18FFE899x     Rx d 8 00 00 6F 21 03 14 00 15 
2593.4271    2          18FFE398x     Rx d 8 0F 00 11 94 0C 00 5F 00 
2593.428     2          18FFC698x     Rx d 8 02 00 02 00 00 00 00 00 
2593.4286    2          18FF3097x     Rx d 8 D5 00 10 00 00 00 00 00 
2593.4291    2          10FFE597x     Rx d 8 17 A9 FA C8 A1 15 98 3A 
2593.4297    2          18FFF298x     Rx d 8 11 14 2F 14 00 01 01 A5 
2593.4339    2          10FFF6F4x     Rx d 8 40 00 01 00 00 00 00 66 
2593.4345    2          18FFE699x     Rx d 8 79 3C 8D 15 A8 03 57 65 
2593.435     2          18FFE899x     Rx d 8 00 00 76 21 03 14 00 15 
2593.4382    2          10FFE597x     Rx d 8 17 B9 FA C8 A1 15 98 3A 
2593.4388    2          10F01797x     Rx d 8 0B 78 3C 8D 15 00 00 00 
2593.4444    2          18FFE699x     Rx d 8 79 3C 90 15 AA 03 57 75 
2593.3917    1          0CFE6C17x     Rx d 8 FF FF FF FF FF FF 10 0E 
2593.3922    1          18F0090Bx     Rx d 8 FF FF FF FF FF FF FF 80 
2593.3928    1          18FA0117x     Rx d 8 10 00 F0 C3 0F FF FF FF 
2593.3937    1          0CFF83AAx     Rx d 8 FF A2 D4 73 81 13 16 74 
2593.3962    1          0CEFEF0Bx     Rx d 8 CC FA 7D FF FF FF FF 53 
2593.3983    1          0CF00203x     Rx d 8 01 E0 0E 00 00 00 00 00 
2593.3988    1          18FF2997x     Rx d 8 0B 3C 0C 1E 00 E2 00 00 
2593.3994    1          0CF00400x     Rx d 8 11 89 8F E0 15 00 00 8F 
2593.4       1          18FF20EFx     Rx d 8 F1 8F 70 07 7D EF 00 6C 
2593.4005    1          18F0090Bx     Rx d 8 FF FF FF FF FF FF FF 80 
2593.4011    1          18FF7097x     Rx d 8 00 7D 00 2D E9 1F 0D 70 
2593.402     1          0CFF82BCx     Rx d 8 73 45 C0 80 1E FF FF 6F 
2593.4025    1          08FE6E0Bx     Rx d 8 D0 0D 0E 0F 78 0D AC 0E 
2593.4031    1          0CFF84A0x     Rx d 8 C0 00 C3 00 00 7E 7D 47 
2593.4083    1          0CF00203x     Rx d 8 01 F0 0E 00 00 00 00 00 
2593.4088    1          0CF00400x     Rx d 8 11 89 8F E0 15 00 00 8F 
2593.4094    1          18FF20EFx     Rx d 8 F1 8F 78 07 7D EF 00 6C 
2593.4099    1          0C040B97x     Rx d 8 7E 7D CC 00 FF FF FF 14 
2593.4105    1          18F0090Bx     Rx d 8 FF FF FF FF FF FF FF 80 
2593.4111    1          18FEC1EEx     Rx d 8 DA 38 0B 00 A8 38 0B 00 
2593.4137    1          0CFF83AAx     Rx d 8 FF A2 E1 73 80 F2 14 84 
2593.4183    1          0CF00203x     Rx d 8 01 F0 0E 00 00 00 00 00 
2593.4188    1          18FEA297x     Rx d 8 00 24 2C 00 F0 0A 00 00 
2593.4194    1          0CF00400x     Rx d 8 11 89 8F E0 15 00 00 8F 
2593.42      1          18FF20EFx     Rx d 8 F1 8F 78 07 7D EF 00 6C 
2593.4205    1          0C00000Bx     Rx d 8 30 FF FF FA FF FF FF 52 
2593.4211    1          18F0090Bx     Rx d 8 FF FF FF FF FF FF FF 80 
2593.4217    1          18FEAE30x     Rx d 8 FF FF 6C 6C FF FF FF FF 
2593.4222    1          08FE6E0Bx     Rx d 8 C2 0D 02 0F 82 0D B4 0E 
2593.4228    1          0CFF82BCx     Rx d 8 73 1C C0 80 1E FF FF 7F 
2593.4234    1          0CFF84A0x     Rx d 8 C0 00 C3 00 00 7E 7D 58 
2593.4239    1          18FEBF0Bx     Rx d 8 62 0E 73 87 6F 82 FF FF 
2593.4245    1          18F0010Bx     Rx d 8 00 00 C3 FF FF 01 FF F3 
2593.4251    1          18FEF121x     Rx d 8 FF FF FF FF 00 FF FF FF 
2593.4256    1          18FF7097x     Rx d 8 00 7D 00 2D E9 28 0D 90 
2593.4262    1          18FF8CA9x     Rx d 8 00 00 00 00 00 00 00 00 
2593.4268    1          18FE4F0Bx     Rx d 8 FF FF FF FF FF FF FF FF 
2593.4274    1          18FFA091x     Rx d 8 A0 F0 30 FC FF FF FF 46 
2593.4283    1          0CF00203x     Rx d 8 01 00 0F 00 00 00 00 00 
2593.4288    1          18F00503x     Rx d 8 7E E8 03 7E 00 00 00 00 
2593.4294    1          0CF00400x     Rx d 8 11 89 8F E0 15 00 00 8F 
2593.43      1          18FEAD0Bx     Rx d 8 00 00 00 00 FE FE FF FF 
2593.4306    1          18F0090Bx     Rx d 8 FF FF FF FF FF FF FF 80 
2593.4311    1          18FF20EFx     Rx d 8 F1 8F 80 07 7D EF 00 6C 
2593.4317    1          0C040B97x     Rx d 8 7E 7D CC 00 FF FF FF 25 
2593.4323    1          0CF00300x     Rx d 8 00 1E 00 00 00 00 00 00 
2593.4328    1          18FFC7BCx     Rx d 8 00 CB C1 D6 00 11 20 00 
2593.4334    1          18F001ACx     Rx d 8 FF FF FF FF FF FF FF F3 
2593.434     1          0CFF83AAx     Rx d 8 FF 9F E7 73 80 D4 12 94 
2593.4362    1          18FDC40Bx     Rx d 8 00 00 64 F3 FF FF FF FF 
2593.4383    1          0CF00203x     Rx d 8 01 00 0F 00 00 00 00 00 
2593.4389    1          18FEF100x     Rx d 8 00 31 0D 00 00 00 00 00 
2593.4394    1          0CF00400x     Rx d 8 11 89 8F E0 15 00 00 8F 
2593.44      1          18FF20EFx     Rx d 8 F1 8F 80 07 7D EF 00 6C 
2593.4406    1          18F0090Bx     Rx d 8 FF FF FF FF FF FF FF 80 
2593.4411    1          0CFE6CEEx     Rx d 8 FF FF FF FF FF FF 10 0E 
2593.4417    1          18FF7097x     Rx d 8 00 7D 00 2E E9 31 0D B0 
2593.4422    1          08FE6E0Bx     Rx d 8 E2 0D 14 0F 90 0D BA 0E 
2593.4428    1          0CFE6C17x     Rx d 8 FF FF FF FF FF FF 10 0E 
2593.4434    1          0CFF82BCx     Rx d 8 72 F8 C0 80 1E FF FF 8F 
2593.4439    1          0CFF84A0x     Rx d 8 C0 00 C3 00 00 7E 7D 69 
2593.4445    1          18FA0117x     Rx d 8 10 00 F0 C3 0F FF FF FF 
2593.4483    1          0CF00203x     Rx d 8 01 08 0F 00 00 00 00 00 
2593.4488    1          18FE4A03x     Rx d 8 00 01 00 00 00 00 00 00 
2593.4494    1          0CF00400x     Rx d 8 11 89 8F E0 15 00 00 8F 
2593.45      1          18FF20EFx     Rx d 8 F1 8F 84 07 7D EF 00 6C 
2593.4505    1          0C040B97x     Rx d 8 7E 7D CC 00 FF FF FF 36 
2593.4511    1          18F0090Bx     Rx d 8 FF FF FF FF FF FF FF 80 
2593.4517    1          18FA2017x     Rx d 8 FF 00 FF FF 49 FF FF FF 
2593.4537    1          0CFF83AAx     Rx d 8 FF 9F ED 73 80 B8 11 A4 
2593.445     2          18FFE899x     Rx d 8 00 00 74 21 03 14 00 15 
2593.4482    2          10FFE597x     Rx d 8 17 C9 FA C8 A1 15 98 3A 
2593.4544    2          18FFE699x     Rx d 8 7A 3C 91 15 AF 03 57 85 
2593.455     2          18FFE899x     Rx d 8 00 00 7A 21 03 14 00 15 
2593.4582    2          10FFE597x     Rx d 8 17 D9 FA C8 A1 15 98 3A 
2593.4588    2          10F01797x     Rx d 8 0B 79 3C 90 15 00 00 00 
2593.4644    2          18FFE699x     Rx d 8 7A 3C 96 15 AF 03 57 95 
2593.465     2          18FFE899x     Rx d 8 00 00 78 21 02 14 00 15 
2593.4682    2          10FFE597x     Rx d 8 17 E9 FA C8 A1 15 98 3A 
2593.4688    2          10FFE497x     Rx d 8 8F 00 00 00 02 00 00 4E 
2593.4694    2          18F0089Ex     Rx d 8 83 62 88 07 49 64 00 61 
2593.4744    2          10FFECF4x     Rx d 8 28 34 72 7F CE B3 DD C3 
2593.4583    1          0CF00203x     Rx d 8 01 08 0F 00 00 00 00 00 
2593.4589    1          18FFFE97x     Rx d 8 00 00 00 00 00 00 00 00 
2593.4594    1          0CF00400x     Rx d 8 11 89 8F E0 15 00 00 8F 
2593.46      1          18FF20EFx     Rx d 8 F1 8F 84 07 7D EF 00 6C 
2593.4606    1          18F0090Bx     Rx d 8 FF FF FF FF FF FF FF 80 
2593.4611    1          18FA0617x     Rx d 8 30 00 FF FF FF FF FF FF 
2593.4617    1          18FF7097x     Rx d 8 00 7D 00 2E E9 3A 0D D0 
2593.4623    1          08FE6E0Bx     Rx d 8 E6 0D 28 0F 98 0D C4 0E 
2593.4628    1          0CFF82BCx     Rx d 8 72 D8 C0 80 1E FF FF 9F 
2593.4634    1          0CFF84A0x     Rx d 8 C0 00 C3 00 00 7E 7D 7A 
2593.4683    1          0CF00203x     Rx d 8 01 10 0F 00 00 00 00 00 
2593.4689    1          18FF6597x     Rx d 8 01 00 00 00 00 00 00 00 
2593.4694    1          0CF00400x     Rx d 8 11 89 8F E0 15 00 00 8F 
2593.47      1          18FF20EFx     Rx d 8 F1 8F 88 07 7D EF 00 6C 
2593.4705    1          0C040B97x     Rx d 8 7E 7D CC 00 FF FF FF 47 
2593.4711    1          18F0090Bx     Rx d 8 FF FF FF FF FF FF FF 80 
2593.4717    1          18FA0217x     Rx d 8 FF 00 D9 00 D9 00 F0 00 
2593.4722    1          18FEBF0Bx     Rx d 8 80 0E 74 86 6F 81 FF FF 
2593.4728    1          18FF8CA9x     Rx d 8 00 00 00 00 00 00 00 00 
2593.4734    1          18FEDFEFx     Rx d 8 7D 00 00 00 7D 00 00 00 
2593.474     1          0CFF83AAx     Rx d 8 FF 9F F5 73 80 9E 0F B4 
2593.4783    1          0CF00203x     Rx d 8 01 10 0F 00 00 00 00 00 
2593.4788    1          18FFEB97x     Rx d 8 7A 3C 7A 3C 00 00 00 00 
2593.4794    1          0CF00400x     Rx d 8 11 89 8F E0 15 00 00 8F 
2593.4799    1          18FF20EFx     Rx d 8 F1 8F 88 07 7D EF 00 6C 
2593.4805    1          18F0090Bx     Rx d 8 FF FF FF FF FF FF FF 80 
2593.4811    1          18FEF117x     Rx d 8 F3 45 0E CF FF FF FF FF 
2593.4816    1          18FF7097x     Rx d 8 00 7D 00 2E E9 43 0D F0 
2593.4822    1          0CF00300x     Rx d 8 00 1E 00 00 00 00 00 00 
2593.4828    1          08FE6E0Bx     Rx d 8 E2 0D 26 0F A4 0D C8 0E 
2593.475     2          18FFE699x     Rx d 8 7B 3C 99 15 B6 03 57 A5 
2593.4756    2          10FFF5F4x     Rx d 8 05 08 7D 8B 00 00 00 00 
2593.4761    2          18FF5081x     Rx d 8 3D 33 A4 36 C7 DB 54 D2 
2593.4767    2          18FF00EFx     Rx d 8 01 00 00 00 00 00 00 00 
2593.4773    2          18FFE899x     Rx d 8 00 00 7F 21 03 14 00 15 
2593.4778    2          18FFE398x     Rx d 8 0F 00 16 94 0C 00 5F 10 
2593.4784    2          10FFE597x     Rx d 8 17 F9 FA C8 A1 15 98 3A 
2593.4789    2          10F01797x     Rx d 8 0B 7A 3C 96 15 00 00 00 
2593.4795    2          18FFC698x     Rx d 8 02 00 2C 00 00 00 00 00 
2593.4806    2          18FFF298x     Rx d 8 16 14 FF 13 00 01 01 A6 
2593.4844    2          18FFE699x     Rx d 8 7B 3C 97 15 B5 03 57 B5 
2593.485     2          18FFE899x     Rx d 8 00 00 7E 21 02 14 00 15 
2593.4856    2          10FFF6F4x     Rx d 8 40 00 01 00 00 00 00 67 
2593.4882    2          10FFE597x     Rx d 8 17 09 FA C8 A1 15 98 3A 
2593.4945    2          18FFE699x     Rx d 8 7C 3C 9E 15 BA 03 57 C5 
2593.495     2          18FFE899x     Rx d 8 00 00 83 21 03 14 00 15 
2593.4982    2          10FFE597x     Rx d 8 17 19 FA C8 9C 15 98 3A 
2593.4988    2          10F01797x     Rx d 8 0B 7B 3C 97 15 00 00 00 
2593.5045    2          18FFE699x     Rx d 8 7C 3C 94 15 B8 03 57 D5 
2593.4834    1          0CFF82BCx     Rx d 8 72 BA C0 80 1E FF FF AF 
2593.4839    1          0CFF84A0x     Rx d 8 C0 00 C3 00 00 7E 7D 8B 
2593.4845    1          18FFC7BCx     Rx d 8 00 CB C1 D6 00 11 20 00 
2593.4851    1          18FFC8A0x     Rx d 8 01 10 FF FF 00 FF FF FF 
2593.4856    1          18FFC9A0x     Rx d 8 C3 DF C8 FF FF FF FF FF 
2593.4883    1          0CF00203x     Rx d 8 01 18 0F 00 00 00 00 00 
2593.4888    1          18FFEA97x     Rx d 8 13 08 01 01 00 00 00 00 
2593.4894    1          0CF00400x     Rx d 8 11 89 8F E0 15 00 00 8F 
2593.49      1          18FF20EFx     Rx d 8 F1 8F 8C 07 7D EF 00 6C 
2593.4905    1          0C040B97x     Rx d 8 7E 7D CC 00 FF FF FF 58 
2593.4911    1          18F0090Bx     Rx d 8 FF FF FF FF FF FF FF 80 
2593.4917    1          0CFE6CEEx     Rx d 8 FF FF FF FF FF FF 45 0E 
2593.4923    1          0CFE6C17x     Rx d 8 FF FF FF FF FF FF 45 0E 
2593.4932    1          18FA0117x     Rx d 8 10 00 F0 C3 0F FF FF FF 
2593.4937    1          0CFF83AAx     Rx d 8 FF A0 FF 73 80 88 0E C4 
2593.4962    1          0CEFEF0Bx     Rx d 8 CC FA 7D FF FF FF FF 74 
2593.4983    1          0CF00203x     Rx d 8 01 18 0F 00 00 00 00 00 
2593.4988    1          18FF2997x     Rx d 8 0B 3C 0B 1E 00 E3 00 00 
2593.4994    1          0CF00400x     Rx d 8 11 88 8F E0 15 00 00 8F 
2593.4999    1          18FF20EFx     Rx d 8 F1 8F 8C 07 7D EF 00 6C 
2593.5005    1          18F0090Bx     Rx d 8 FF FF FF FF FF FF FF 80 
2593.5011    1          18FF7097x     Rx d 8 00 7D 00 2F E9 4C 0D 10 
2593.502     1          0CFF82BCx     Rx d 8 72 9F C0 80 1E FF FF BF 
2593.5025    1          08FE6E0Bx     Rx d 8 F4 0D 3C 0F B0 0D D2 0E 
2593.5031    1          0CFF84A0x     Rx d 8 C0 00 C3 00 00 7E 7D 9C 
2593.5083    1          0CF00203x     Rx d 8 01 20 0F 00 00 00 00 00 
2593.5088    1          0CF00400x     Rx d 8 11 89 90 E0 15 00 00 90 
2593.5094    1          18FF20EFx     Rx d 8 F1 90 90 07 7D EF 00 6C 
2593.5099    1          0C040B97x     Rx d 8 7E 7D CC 00 FF FF FF 69 
2593.5105    1          18F0090Bx     Rx d 8 FF FF FF FF FF FF FF 80 
2593.5137    1          0CFF83AAx     Rx d 8 FF A1 0B 74 80 74 0C D4 
2593.5051    2          18FFE899x     Rx d 8 00 00 7F 21 02 14 00 15 
2593.5082    2          10FFE597x     Rx d 8 17 29 FA C8 A1 15 98 3A 
2593.5145    2          18FFE699x     Rx d 8 7D 3C 99 15 BB 03 57 E5 
2593.515     2          18FFE899x     Rx d 8 00 00 85 21 03 14 00 15 
2593.5182    2          10FFE597x     Rx d 8 17 39 FA C8 A1 15 98 3A 
2593.5188    2          18FF3197x     Rx d 8 80 0A 7D 0A F3 01 F3 01 
2593.5194    2          10F01797x     Rx d 8 0B 7C 3C 94 15 00 00 00 
2593.5199    2          10FFE497x     Rx d 8 8F 00 00 00 02 00 00 53 
2593.5245    2          18FFE699x     Rx d 8 7D 3C 96 15 B9 03 57 F5 
2593.5251    2          18FFE899x     Rx d 8 00 00 80 21 02 14 00 15 
2593.5256    2          10FFF5F4x     Rx d 8 05 08 7D 8B 00 00 00 00 
2593.5282    2          10FFE597x     Rx d 8 17 49 FA C8 A1 15 98 3A 
2593.5288    2          18FF3097x     Rx d 8 D5 00 10 00 00 00 00 00 
2593.5294    2          18FFE398x     Rx d 8 0F 00 1D 94 0C 00 5F 20 
2593.5302    2          18FFC698x     Rx d 8 1B 00 4A 00 00 00 00 00 
2593.5312    2          18FFF298x     Rx d 8 1D 14 32 14 00 01 01 A7 
2593.534     2          10FFF6F4x     Rx d 8 40 00 01 00 00 00 00 68 
2593.5345    2          18FFE699x     Rx d 8 7E 3C 9B 15 BE 03 57 05 
2593.5351    2          18FFE899x     Rx d 8 00 00 86 21 03 14 00 15 
2593.5183    1          0CF00203x     Rx d 8 01 20 0F 00 00 00 00 00 
2593.5188    1          18FEA297x     Rx d 8 00 24 2C 00 F0 0A 00 00 
2593.5194    1          0CF00400x     Rx d 8 11 89 8F E0 15 00 00 8F 
2593.52      1          18FF20EFx     Rx d 8 F1 8F 90 07 7D EF 00 6C 
2593.5205    1          0C00000Bx     Rx d 8 30 FF FF FA FF FF FF 63 
2593.5211    1          18F0090Bx     Rx d 8 FF FF FF FF FF FF FF 80 
2593.5217    1          18FF7097x     Rx d 8 00 7D 00 2E E9 54 0D 30 
2593.5222    1          08FE6E0Bx     Rx d 8 F8 0D 26 0F BC 0D DA 0E 
2593.5228    1          0CFF82BCx     Rx d 8 72 86 C0 80 1E FF FF CF 
2593.5234    1          0CFF84A0x     Rx d 8 C0 00 C3 00 00 7E 7D AD 
2593.5239    1          18FEBF0Bx     Rx d 8 8F 0E 74 86 70 81 FF FF 
2593.5245    1          18F0010Bx     Rx d 8 00 00 C3 FF FF 01 FF F3 
2593.5251    1          18FEF121x     Rx d 8 FF FF FF FF 00 FF FF FF 
2593.5256    1          18FF8CA9x     Rx d 8 00 00 00 00 00 00 00 00 
2593.5262    1          18FFA091x     Rx d 8 A0 F0 30 FC FF FF FF 46 
2593.5268    1          18FE4F0Bx     Rx d 8 FF FF FF FF FF FF FF FF 
2593.5282    1          18EBFFEFx     Rx d 8 05 FF FF FF FF FF FF FF 
2593.5288    1          18F00503x     Rx d 8 7E E8 03 7E 00 00 00 00 
2593.5294    1          0CF00203x     Rx d 8 01 28 0F 00 00 00 00 00 
2593.53      1          0CF00400x     Rx d 8 11 89 8F E0 15 00 00 8F 
2593.5305    1          18F0090Bx     Rx d 8 FF FF FF FF FF FF FF 80 
2593.5311    1          18FA0517x     Rx d 8 01 00 30 00 40 00 10 81 
2593.5317    1          18FEAD0Bx     Rx d 8 00 00 00 00 FE FE FF FF 
2593.5322    1          18FF20EFx     Rx d 8 F1 8F 94 07 7D EF 00 6B 
2593.5328    1          0C040B97x     Rx d 8 7E 7D CC 00 FF FF FF 8A 
2593.5334    1          0CF00300x     Rx d 8 00 1E 00 00 00 00 00 00 
2593.534     1          0CFF83AAx     Rx d 8 FF A2 1E 74 80 62 0B E4 
2593.5345    1          18F001ACx     Rx d 8 FF FF FF FF FF FF FF F3 
2593.5351    1          18FF8DACx     Rx d 8 00 0A 4A 00 00 00 00 00 
2593.5357    1          18FFC7BCx     Rx d 8 00 CB C1 D6 00 11 20 00 
2593.5363    1          18FDC40Bx     Rx d 8 00 00 64 F3 FF FF FF FF 
2593.5383    1          0CF00203x     Rx d 8 01 28 0F 00 00 00 00 00 
2593.5382    2          10FFE597x     Rx d 8 17 59 FA C8 A1 15 98 3A 
2593.5388    2          10F01797x     Rx d 8 0B 7D 3C 96 15 00 00 00 
2593.5445    2          18FFE699x     Rx d 8 7F 3C 9C 15 BB 03 57 15 
2593.5451    2          18FFE899x     Rx d 8 00 00 84 21 02 14 00 15 
2593.5482    2          10FFE597x     Rx d 8 17 69 FA C8 A1 15 98 3A 
2593.5388    1          18FEF100x     Rx d 8 00 5D 0D 00 00 00 00 00 
2593.5394    1          0CF00400x     Rx d 8 11 89 8F E0 15 00 00 8F 
2593.54      1          18FF20EFx     Rx d 8 F1 8F 94 07 7D EF 00 6B 
2593.5405    1          18F0090Bx     Rx d 8 FF FF FF FF FF FF FF 80 
2593.5411    1          18FA0517x     Rx d 8 02 CC 0F FD 0C F3 FF D8 
2593.5417    1          0CFE6CEEx     Rx d 8 FF FF FF FF FF FF 45 0E 
2593.5422    1          0CFE6C17x     Rx d 8 FF FF FF FF FF FF 45 0E 
2593.5428    1          08FE6E0Bx     Rx d 8 10 0E 30 0F CC 0D DE 0E 
2593.5434    1          0CFF82BCx     Rx d 8 72 71 C0 80 1E FF FF DF 
2593.5439    1          0CFF84A0x     Rx d 8 C0 00 C3 00 00 7E 7D BE 
2593.5445    1          18FA0117x     Rx d 8 10 00 F0 C3 0F FF FF FF 
2593.5451    1          18FF7097x     Rx d 8 00 7D 00 2E E9 5D 0D 50 
2593.5483    1          0CF00203x     Rx d 8 01 30 0F 00 00 00 00 00 
2593.5488    1          18FE4A03x     Rx d 8 00 01 00 00 00 00 00 00 
2593.5494    1          0CF00400x     Rx d 8 11 89 8F E0 15 00 00 8F 
2593.55      1          18FF20EFx     Rx d 8 F1 8F 98 07 7D EF 00 6B 
2593.5505    1          0C040B97x     Rx d 8 7E 7D CC 00 FF FF FF 9B 
2593.5511    1          18F0090Bx     Rx d 8 FF FF FF FF FF FF FF 80 
2593.5517    1          18FA0517x     Rx d 8 03 FF FF FF FF FF FF FD 
2593.5537    1          0CFF83AAx     Rx d 8 FF A4 39 74 80 53 0A F4 
2593.5545    2          18FFE699x     Rx d 8 7F 3C A3 15 C1 03 57 25 
2593.5551    2          18FFE899x     Rx d 8 00 00 8A 21 02 14 00 15 
2593.5582    2          10FFE597x     Rx d 8 17 79 FA C8 A1 15 98 3A 
2593.5588    2          10F01797x     Rx d 8 0B 7F 3C 9C 15 00 00 00 
2593.5645    2          18FFE699x     Rx d 8 80 3C 9B 15 BF 03 57 35 
2593.5651    2          18FFE899x     Rx d 8 00 00 88 21 02 14 00 15 
2593.5682    2          10FFE597x     Rx d 8 17 89 FA C8 A1 15 98 3A 
2593.5583    1          0CF00203x     Rx d 8 01 38 0F 00 00 00 00 00 
2593.5589    1          18FFFE97x     Rx d 8 00 00 00 00 00 00 00 00 
2593.5594    1          0CF00400x     Rx d 8 11 89 90 E0 15 00 00 90 
2593.56      1          18FF20EFx     Rx d 8 F1 90 9C 07 7D EF 00 6B 
2593.5605    1          18F0090Bx     Rx d 8 FF FF FF FF FF FF FF 80 
2593.5611    1          18FF7097x     Rx d 8 00 7D 00 2F E9 65 0D 70 
2593.562     1          0CFF82BCx     Rx d 8 72 5E C0 80 1E FF FF EF 
2593.5625    1          08FE6E0Bx     Rx d 8 12 0E 4E 0F D6 0D EA 0E 
2593.5631    1          0CFF84A0x     Rx d 8 C0 00 C3 00 00 7E 7D CF 
2593.5683    1          0CF00203x     Rx d 8 01 38 0F 00 00 00 00 00 
2593.5689    1          18FF6597x     Rx d 8 01 00 00 00 00 00 00 00 
2593.5694    1          0CF00400x     Rx d 8 11 89 90 E0 15 00 00 90 
2593.57      1          18FF20EFx     Rx d 8 F1 90 9C 07 7D EF 00 6B 
2593.5705    1          0C040B97x     Rx d 8 7E 7D CC 00 FF FF FF AC 
2593.5711    1          18F0090Bx     Rx d 8 FF FF FF FF FF FF FF 80 
2593.5688    2          10FFE497x     Rx d 8 8F 00 00 00 02 00 00 58 
2593.5697    2          18F0099Ex     Rx d 8 84 00 7D 00 46 64 00 00 
2593.5702    2          18F0089Ex     Rx d 8 84 5D 88 07 49 64 00 61 
2593.5744    2          10FFF5F4x     Rx d 8 05 08 7D 8B 00 00 00 00 
2593.5749    2          18FFE699x     Rx d 8 81 3C A4 15 C3 03 57 45 
2593.5755    2          18FF5081x     Rx d 8 3D 33 A4 36 C7 DB 54 D2 
2593.576     2          18FF00EFx     Rx d 8 01 00 00 00 00 00 00 00 
2593.5766    2          18FFE899x     Rx d 8 00 00 8E 21 02 14 00 15 
2593.5772    2          18FFE799x     Rx d 8 48 49 F0 0A 98 08 00 02 
2593.5782    2          10FFE597x     Rx d 8 17 99 FA C8 A1 15 98 3A 
2593.5788    2          10F00697x     Rx d 8 56 61 64 56 00 00 00 05 
2593.5793    2          10F01797x     Rx d 8 0B 80 3C 9B 15 00 00 00 
2593.5799    2          18FFE398x     Rx d 8 0F 00 F3 93 0C 00 5F 30 
2593.5808    2          18FFC698x     Rx d 8 02 00 12 00 00 00 00 00 
2593.5818    2          18FFF298x     Rx d 8 F3 13 18 14 00 01 01 A8 
2593.5839    2          18FFEDF4x     Rx d 8 F1 0C E9 0C 76 02 58 02 
2593.5845    2          10FFF6F4x     Rx d 8 40 00 01 00 00 00 00 69 
2593.5717    1          18FF8CA9x     Rx d 8 00 00 00 00 00 00 00 00 
2593.5723    1          18FEBF0Bx     Rx d 8 A6 0E 74 86 70 81 FF FF 
2593.5739    1          0CFF83AAx     Rx d 8 FF A4 54 74 80 48 08 04 
2593.5783    1          0CF00203x     Rx d 8 01 40 0F 00 00 00 00 00 
2593.5789    1          18FFEB97x     Rx d 8 80 3C 80 3C 00 00 00 00 
2593.5794    1          0CF00400x     Rx d 8 11 89 8F E0 15 00 00 8F 
2593.58      1          18FF20EFx     Rx d 8 F1 8F A0 07 7D EF 00 6B 
2593.5806    1          18F0090Bx     Rx d 8 FF FF FF FF FF FF FF 80 
2593.5811    1          18FEF117x     Rx d 8 F3 6B 0E CF FF FF FF FF 
2593.5817    1          18FF7097x     Rx d 8 00 7D 00 2F E9 6E 0D 90 
2593.5822    1          08FE6E0Bx     Rx d 8 08 0E 58 0F DE 0D F4 0E 
2593.5828    1          0CF00300x     Rx d 8 00 1E 00 00 00 00 00 00 
2593.5834    1          0CFF82BCx     Rx d 8 72 4D C0 80 1E FF FF FF 
2593.584     1          0CFF84A0x     Rx d 8 C0 00 C3 00 00 7E 7D D0 
2593.5845    1          18FFC7BCx     Rx d 8 00 CB C1 D6 00 11 20 00 
2593.5851    1          18FFC8A0x     Rx d 8 01 10 FF FF 00 FF FF FF 
2593.5857    1          18FFC9A0x     Rx d 8 C3 DF C8 FF FF FF FF FF 
2593.5883    1          0CF00203x     Rx d 8 01 48 0F 00 00 00 00 00 
2593.5888    1          18FFEA97x     Rx d 8 13 08 01 01 00 00 00 00 
2593.5894    1          0CF00400x     Rx d 8 11 89 90 E0 15 00 00 90 
2593.5899    1          18FF20EFx     Rx d 8 F1 90 A4 07 7D EF 00 6B 
2593.585     2          18FFE699x     Rx d 8 81 3C 99 15 C0 03 57 55 
2593.5856    2          18FFE899x     Rx d 8 00 00 89 21 01 14 00 15 
2593.5882    2          10FFE597x     Rx d 8 17 A9 FA C8 A1 15 98 3A 
2593.5939    2          18FFEEF4x     Rx d 8 B3 0C C5 07 62 02 00 00 
2593.5946    2          18FFE699x     Rx d 8 81 3C 9F 15 C4 03 57 65 
2593.5952    2          18FFE899x     Rx d 8 00 00 8F 21 01 14 00 15 
2593.5982    2          10FFE597x     Rx d 8 17 B9 FA C8 A1 15 98 3A 
2593.5988    2          10F01797x     Rx d 8 0B 81 3C 99 15 00 00 00 
2593.6039    2          18F113F4x     Rx d 8 65 F1 0C 23 E9 0C 02 01 
2593.6046    2          18FFE699x     Rx d 8 82 3C 9D 15 C1 03 57 75 
2593.6052    2          18FFE899x     Rx d 8 00 00 8B 21 01 14 00 15 
2593.6082    2          10FFE597x     Rx d 8 17 C9 FA C8 A1 15 98 3A 
2593.6139    2          18F114F4x     Rx d 8 02 3F 1B 3C 01 01 FF FF 
2593.6146    2          18FFE699x     Rx d 8 83 3C A0 15 C5 03 57 85 
2593.5905    1          0C040B97x     Rx d 8 7E 7D CC 00 FF FF FF BD 
2593.5911    1          0CFE6CEEx     Rx d 8 FF FF FF FF FF FF 6B 0E 
2593.5917    1          0CFE6C17x     Rx d 8 FF FF FF FF FF FF 6B 0E 
2593.5922    1          18F0090Bx     Rx d 8 FF FF FF FF FF FF FF 80 
2593.5928    1          18FA0117x     Rx d 8 10 00 F0 C3 0F FF FF FF 
2593.5937    1          0CFF83AAx     Rx d 8 FF A5 67 74 80 41 07 14 
2593.5962    1          0CEFEF0Bx     Rx d 8 CC FA 7D FF FF FF FF 05 
2593.5983    1          0CF00203x     Rx d 8 01 48 0F 00 00 00 00 00 
2593.5988    1          18FF2997x     Rx d 8 0B 3C 0C 1F 00 E2 00 00 
2593.5994    1          0CF00400x     Rx d 8 11 89 8F E0 15 00 00 8F 
2593.5999    1          18FF20EFx     Rx d 8 F1 8F A4 07 7D EF 00 6B 
2593.6005    1          18F0090Bx     Rx d 8 FF FF FF FF FF FF FF 80 
2593.6011    1          18FF7097x     Rx d 8 00 7D 00 2F E9 77 0D B0 
2593.602     1          0CFF82BCx     Rx d 8 72 3F C0 80 1E FF FF 0F 
2593.6025    1          08FE6E0Bx     Rx d 8 1C 0E 62 0F F4 0D FA 0E 
2593.6031    1          0CFF84A0x     Rx d 8 C0 00 C3 00 00 7E 7D E1 
2593.6083    1          0CF00203x     Rx d 8 01 48 0F 00 00 00 00 00 
2593.6088    1          0CF00400x     Rx d 8 11 89 90 E0 15 00 00 90 

2593.6094    1          18FF20EFx     Rx d 8 F1 90 A4 07 7D EF 00 6B 
2593.6099    1          0C040B97x     Rx d 8 7E 7D CC 00 FF FF FF CE 
2593.6105    1          18F0090Bx     Rx d 8 FF FF FF FF FF FF FF 80 
2593.6137    1          0CFF83AAx     Rx d 8 FF A7 79 74 80 3D 05 24 
2593.6183    1          0CF00203x     Rx d 8 01 50 0F 00 00 00 00 00 
2593.6188    1          18FEA297x     Rx d 8 00 24 2C 00 F0 0A 00 00 
2593.6194    1          0CF00400x     Rx d 8 11 89 90 E0 15 00 00 90 
2593.62      1          18FF20EFx     Rx d 8 F1 90 A8 07 7D EF 00 6B 
2593.6205    1          0C00000Bx     Rx d 8 30 FF FF FA FF FF FF 14 
2593.6211    1          18F0090Bx     Rx d 8 FF FF FF FF FF FF FF 80 
2593.6217    1          18FF7097x     Rx d 8 00 7D 00 2F E9 7F 0D D0 
2593.6223    1          0CFF82BCx     Rx d 8 72 35 C0 80 1E FF FF 1F 
2593.6228    1          08FE6E0Bx     Rx d 8 1C 0E 54 0F F8 0D 06 0F 
2593.6152    2          18FFE899x     Rx d 8 00 00 91 21 01 14 00 15 
2593.6182    2          10FFE597x     Rx d 8 17 D9 FA C8 A1 15 98 3A 
2593.6188    2          18FF3197x     Rx d 8 80 0A 7D 0A F3 01 F3 01 
2593.6193    2          10F01797x     Rx d 8 0B 82 3C 9D 15 00 00 00 
2593.6199    2          10FFE497x     Rx d 8 8F 00 00 00 02 00 00 5D 
2593.6246    2          18FFE699x     Rx d 8 84 3C 9E 15 C2 03 57 95 
2593.6252    2          18FFE899x     Rx d 8 00 00 8F 21 00 14 00 15 
2593.6258    2          18FFF0F4x     Rx d 8 00 00 00 00 00 00 00 00 
2593.6264    2          10FFF5F4x     Rx d 8 05 08 7D 8B 00 00 00 00 
2593.6282    2          18FE8097x     Rx d 8 03 00 01 00 00 00 00 00 
2593.6288    2          18FF3097x     Rx d 8 D5 00 10 00 00 00 00 00 
2593.6294    2          10FFE597x     Rx d 8 17 E9 FA C8 A1 15 98 3A 
2593.6299    2          18FFE398x     Rx d 8 0F 00 24 94 0C 00 5F 40 
2593.6305    2          18FFC698x     Rx d 8 02 00 00 00 00 00 00 00 
2593.6314    2          18FFF298x     Rx d 8 24 14 E8 13 00 01 01 A9 
2593.634     2          18FF3AF4x     Rx d 8 CC 06 02 00 41 40 70 3A 
2593.6345    2          10FFF6F4x     Rx d 8 40 00 01 00 00 00 00 6A 
2593.6351    2          18FFE699x     Rx d 8 84 3C A4 15 C6 03 57 A5 
2593.6356    2          18FFE899x     Rx d 8 00 00 95 21 01 14 00 15 
2593.6382    2          10FFE597x     Rx d 8 17 F9 FA C8 A1 15 98 3A 
2593.6388    2          10F01797x     Rx d 8 0B 84 3C 9E 15 00 00 00 
2593.6446    2          18FFE699x     Rx d 8 86 3C 97 15 C2 03 57 B5 
2593.6452    2          18FFE899x     Rx d 8 00 00 90 21 00 14 00 15 
2593.6482    2          10FFE597x     Rx d 8 17 09 FA C8 A1 15 98 3A 
2593.6546    2          18FFE699x     Rx d 8 85 3C 9F 15 C5 03 57 C5 
2593.6552    2          18FFE899x     Rx d 8 00 00 95 21 00 14 00 15 
2593.6582    2          10FFE597x     Rx d 8 17 19 FA C8 A1 15 98 3A 
2593.6588    2          10F01797x     Rx d 8 0B 86 3C 97 15 00 00 00 
2593.6647    2          18FFE699x     Rx d 8 87 3C 9D 15 C2 03 57 D5 
2593.6652    2          18FFE899x     Rx d 8 00 00 90 21 00 14 00 15 
2593.6682    2          10FFE597x     Rx d 8 17 29 FA C8 9C 15 98 3A 
2593.6688    2          10FFE497x     Rx d 8 8F 00 00 00 02 00 00 62 
2593.6708    2          18F0089Ex     Rx d 8 85 56 88 08 49 64 00 61 
2593.6743    2          10FFECF4x     Rx d 8 28 34 45 7F CE B3 DD E3 
2593.6749    2          18FFE699x     Rx d 8 86 3C A3 15 C7 03 57 E5 
2593.6755    2          10FFF5F4x     Rx d 8 05 08 7D 8B 00 00 00 00 
2593.676     2          18FF5081x     Rx d 8 3D 33 A4 36 C7 DB 54 D2 
2593.6766    2          18FF00EFx     Rx d 8 01 00 00 00 00 00 00 00 
2593.6772    2          18FFE899x     Rx d 8 00 00 97 21 00 14 00 15 
2593.6782    2          10FFE597x     Rx d 8 17 39 FA C8 98 15 98 3A 
2593.6788    2          10F01797x     Rx d 8 0B 87 3C 9D 15 00 00 00 
2593.6801    2          18FFE398x     Rx d 8 0F 00 0D 94 0C 00 5F 50 
2593.681     2          18FFC698x     Rx d 8 04 00 02 00 00 00 00 00 
2593.682     2          18FFF298x     Rx d 8 0D 14 16 14 00 01 01 AA 
2593.684     2          18F401A8x     Rx d 8 01 1B 00 00 70 4F 00 00 
2593.6847    2          18FFE699x     Rx d 8 88 3C 9F 15 C5 03 57 F5 
2593.6853    2          10FFF6F4x     Rx d 8 40 00 01 00 00 00 00 6B 
2593.6858    2          18FFE899x     Rx d 8 00 00 95 21 FF 13 00 15 
2593.6882    2          10FFE597x     Rx d 8 17 49 FA C8 94 15 98 3A 
2593.6947    2          18FFE699x     Rx d 8 88 3C A6 15 C9 03 57 05 
2593.6953    2          18FFE899x     Rx d 8 00 00 9A 21 00 14 00 15 
2593.6982    2          10FFE597x     Rx d 8 17 59 FA C8 9C 15 98 3A 
2593.6988    2          10F01797x     Rx d 8 0B 88 3C 9F 15 00 00 00 
2593.7047    2          18FFE699x     Rx d 8 89 3C 98 15 C4 03 57 15 
2593.7052    2          18FFE899x     Rx d 8 00 00 94 21 FF 13 00 15 
2593.7082    2          10FFE597x     Rx d 8 17 69 FA C8 A1 15 98 3A 
2593.7147    2          18FFE699x     Rx d 8 88 3C 9F 15 C7 03 57 25 
2593.7153    2          18FFE899x     Rx d 8 00 00 9A 21 FF 13 00 15 
2593.7182    2          10FFE597x     Rx d 8 17 79 FA C8 A1 15 98 3A 
2593.7188    2          18FF3197x     Rx d 8 80 0A 7D 0A F3 01 F3 01 
2593.7194    2          10F01797x     Rx d 8 0B 89 3C 98 15 00 00 00 
2593.7199    2          10FFE497x     Rx d 8 8F 00 00 00 02 00 00 67 
2593.7221    2          18FF0B97x     Rx d 8 0A 0D 14 00 00 00 00 67 
2593.7247    2          18FFE699x     Rx d 8 89 3C 9A 15 C3 03 57 35 
2593.7253    2          18FFE899x     Rx d 8 00 00 94 21 FF 13 00 15 
2593.7258    2          10FFF5F4x     Rx d 8 05 08 7D 8B 00 00 00 00 
2593.7282    2          10FFE597x     Rx d 8 17 89 FA C8 A1 15 98 3A 
2593.7288    2          18FF3097x     Rx d 8 D5 00 10 00 00 00 00 00 
2593.7307    2          18FFE398x     Rx d 8 0F 00 F5 93 0C 00 5F 60 
2593.7316    2          18FFC698x     Rx d 8 06 00 02 00 00 00 00 00 
2593.7322    2          18FEE097x     Rx d 8 00 00 00 00 50 00 00 00 
2593.7327    2          18FFF298x     Rx d 8 F5 13 F5 13 00 01 01 AB 
2593.734     2          10FFF6F4x     Rx d 8 40 00 01 00 00 00 00 6C 
2593.7347    2          18FFE699x     Rx d 8 89 3C A1 15 C7 03 57 45 
2593.7353    2          18FFE899x     Rx d 8 00 00 9A 21 FF 13 00 15 
2593.7383    2          10FFE597x     Rx d 8 17 99 FA C8 A1 15 98 3A 
2593.7388    2          10F01797x     Rx d 8 0B 89 3C 9A 15 00 00 00 
2593.7421    2          18FF3297x     Rx d 8 88 1B 00 FF 01 00 00 00 
2593.6234    1          0CFF84A0x     Rx d 8 C0 00 C3 00 00 7E 7D F2 
2593.6239    1          18FEBF0Bx     Rx d 8 B8 0E 74 86 71 81 FF FF 
2593.6245    1          18F0010Bx     Rx d 8 00 00 C3 FF FF 01 FF F3 
2593.6251    1          18FEF121x     Rx d 8 FF FF FF FF 00 FF FF FF 
2593.6257    1          18FF65ACx     Rx d 8 69 00 59 00 00 00 FF FF 
2593.6262    1          18FF8CA9x     Rx d 8 00 00 00 00 00 00 00 00 
2593.6268    1          18FE4F0Bx     Rx d 8 FF FF FF FF FF FF FF FF 
2593.6274    1          18FFA091x     Rx d 8 A0 F0 30 FC FF FF FF 46 
2593.6283    1          0CF00203x     Rx d 8 01 58 0F 00 00 00 00 00 
2593.6288    1          18F00503x     Rx d 8 7E E8 03 7E 00 00 00 00 
2593.6294    1          0CF00400x     Rx d 8 11 89 90 E0 15 00 00 90 
2593.63      1          18FEAD0Bx     Rx d 8 00 00 00 00 FE FE FF FF 
2593.6306    1          18F0090Bx     Rx d 8 FF FF FF FF FF FF FF 80 
2593.6311    1          18FF20EFx     Rx d 8 F1 90 AC 07 7D EF 00 6B 
2593.6317    1          0C040B97x     Rx d 8 7E 7D CC 00 FF FF FF DF 
2593.6323    1          0CF00300x     Rx d 8 00 1E 00 00 00 00 00 00 
2593.6328    1          18FFC7BCx     Rx d 8 00 CB C1 D6 00 11 20 00 
2593.6334    1          18F001ACx     Rx d 8 FF FF FF FF FF FF FF F3 
2593.634     1          0CFF83AAx     Rx d 8 FF A7 8D 74 80 3C 03 34 
2593.6362    1          18FDC40Bx     Rx d 8 00 00 64 F3 FF FF FF FF 
2593.6383    1          0CF00203x     Rx d 8 01 60 0F 00 00 00 00 00 
2593.6389    1          18FEF100x     Rx d 8 00 88 0D 00 00 00 00 00 
2593.6394    1          0CF00400x     Rx d 8 11 89 90 E0 15 00 00 90 
2593.64      1          18FF20EFx     Rx d 8 F1 90 B0 07 7D EF 00 6B 
2593.6405    1          18F0090Bx     Rx d 8 FF FF FF FF FF FF FF 80 
2593.6411    1          0CFE6CEEx     Rx d 8 FF FF FF FF FF FF 6B 0E 
2593.6417    1          0CFE6C17x     Rx d 8 FF FF FF FF FF FF 6B 0E 
2593.6422    1          0CFF82BCx     Rx d 8 72 2F C0 80 1E FF FF 2F 
2593.6428    1          08FE6E0Bx     Rx d 8 2C 0E 5C 0F 02 0E 0C 0F 
2593.6434    1          0CFF84A0x     Rx d 8 C0 00 C3 00 00 7E 7D 03 
2593.6439    1          18FA0117x     Rx d 8 10 00 F0 C3 0F FF FF FF 
2593.6445    1          18FF7097x     Rx d 8 00 7D 00 2F E9 88 0D F0 
2593.6483    1          0CF00203x     Rx d 8 01 60 0F 00 00 00 00 00 
2593.6489    1          18FE4A03x     Rx d 8 00 01 00 00 00 00 00 00 
2593.6494    1          0CF00400x     Rx d 8 11 89 90 E0 15 00 00 90 
2593.65      1          18FF20EFx     Rx d 8 F1 90 B0 07 7D EF 00 6B 
2593.6505    1          0C040B97x     Rx d 8 7E 7D CC 00 FF FF FF D0 
2593.6511    1          18F0090Bx     Rx d 8 FF FF FF FF FF FF FF 80 
2593.6537    1          0CFF83AAx     Rx d 8 FF A5 A1 74 80 3C 02 44 
2593.6583    1          0CF00203x     Rx d 8 01 70 0F 00 00 00 00 00 
2593.6589    1          18FFFE97x     Rx d 8 00 00 00 00 00 00 00 00 
2593.6594    1          0CF00400x     Rx d 8 11 89 8F E0 15 00 00 8F 
2593.66      1          18FF20EFx     Rx d 8 F1 8F B8 07 7D EF 00 6B 
2593.6606    1          18F0090Bx     Rx d 8 FF FF FF FF FF FF FF 80 
2593.6611    1          18FA0617x     Rx d 8 30 00 FF FF FF FF FF FF 
2593.6617    1          18FF7097x     Rx d 8 00 7D 00 2F E9 91 0D 10 
2593.6623    1          08FE6E0Bx     Rx d 8 32 0E 62 0F 0A 0E 10 0F 
2593.6628    1          0CFF82BCx     Rx d 8 72 2C C0 80 1E FF FF 3F 
2593.6634    1          0CFF84A0x     Rx d 8 C0 00 C3 00 00 7E 7D 14 
2593.6683    1          0CF00203x     Rx d 8 01 68 0F 00 00 00 00 00 
2593.6689    1          18FF6597x     Rx d 8 01 00 00 00 00 00 00 00 
2593.6694    1          0CF00400x     Rx d 8 11 88 90 E0 15 00 00 90 
2593.67      1          18FF20EFx     Rx d 8 F1 90 B4 07 7D EF 00 6B 
2593.6706    1          0C040B97x     Rx d 8 7E 7D CC 00 FF FF FF E1 
2593.6711    1          18F0090Bx     Rx d 8 FF FF FF FF FF FF FF 80 
2593.6717    1          18FF8CA9x     Rx d 8 00 00 00 00 00 00 00 00 
2593.6723    1          18FEBF0Bx     Rx d 8 D7 0E 73 87 71 81 FF FF 
2593.6739    1          0CFF83AAx     Rx d 8 FF A5 B2 74 80 3C 02 54 
2593.6783    1          0CF00203x     Rx d 8 01 78 0F 00 00 00 00 00 
2593.6788    1          18FFEB97x     Rx d 8 87 3C 87 3C 00 00 00 00 
2593.6794    1          0CF00400x     Rx d 8 11 88 90 E0 15 00 00 90 
2593.6799    1          18FF20EFx     Rx d 8 F1 90 BC 07 7D EF 00 6B 
2593.6805    1          18F0090Bx     Rx d 8 FF FF FF FF FF FF FF 80 
2593.6811    1          18FEF117x     Rx d 8 F3 99 0E CF FF FF FF FF 
2593.6816    1          18FF7097x     Rx d 8 00 7D 00 2F E9 9A 0D 30 
2593.6822    1          0CF00300x     Rx d 8 00 1B 00 00 00 00 00 00 
2593.6828    1          08FE6E0Bx     Rx d 8 30 0E 68 0F 12 0E 1C 0F 
2593.6833    1          0CFF82BCx     Rx d 8 72 2C C0 80 1E FF FF 4F 
2593.6839    1          0CFF84A0x     Rx d 8 C0 00 C3 00 00 7E 7D 25 
2593.6845    1          18FFC7BCx     Rx d 8 00 CB C1 D6 00 11 20 00 
2593.6851    1          18FFC8A0x     Rx d 8 01 10 FF FF 00 FF FF FF 
2593.6856    1          18FFC9A0x     Rx d 8 C3 DF C8 FF FF FF FF FF 
2593.6883    1          0CF00203x     Rx d 8 01 70 0F 00 00 00 00 00 
2593.6888    1          18FFEA97x     Rx d 8 13 08 01 01 00 00 00 00 
2593.6894    1          0CF00400x     Rx d 8 11 88 90 E0 15 00 00 90 
2593.6899    1          18FF20EFx     Rx d 8 F1 90 B8 07 7D EF 00 6B 
2593.6905    1          0C040B97x     Rx d 8 7E 7D CC 00 FF FF FF F2 
2593.6911    1          0CFE6CEEx     Rx d 8 FF FF FF FF FF FF 99 0E 
2593.6917    1          0CFE6C17x     Rx d 8 FF FF FF FF FF FF 99 0E 
2593.6922    1          18F0090Bx     Rx d 8 FF FF FF FF FF FF FF 80 
2593.6928    1          18FA0117x     Rx d 8 10 00 F0 C3 0F FF FF FF 
2593.6937    1          0CFF83AAx     Rx d 8 FF A2 BE 74 80 3C 01 64 
2593.6962    1          0CEFEF0Bx     Rx d 8 CC FA 7D FF FF FF FF 16 
2593.6983    1          0CF00203x     Rx d 8 01 80 0F 00 00 00 00 00 
2593.6988    1          18FF2997x     Rx d 8 0B 3C 0C 1E 00 E3 00 00 
2593.6994    1          0CF00400x     Rx d 8 11 89 90 E0 15 00 00 90 
2593.7       1          18FF20EFx     Rx d 8 F1 90 C0 07 7D EF 00 6B 
2593.7005    1          18F0090Bx     Rx d 8 FF FF FF FF FF FF FF 80 
2593.7011    1          18FF7097x     Rx d 8 00 7D 00 2F E9 A2 0D 50 
2593.702     1          0CFF82BCx     Rx d 8 72 2C C0 80 1E FF FF 5F 
2593.7025    1          08FE6E0Bx     Rx d 8 44 0E 8A 0F 1A 0E 2C 0F 
2593.7031    1          0CFF84A0x     Rx d 8 C0 00 C3 00 00 7E 7D 36 
2593.7037    1          18FECABCx     Rx d 8 FF FF 00 00 00 00 FF FF 
2593.7083    1          0CF00203x     Rx d 8 01 80 0F 00 00 00 00 00 
2593.7088    1          0CF00400x     Rx d 8 11 89 90 E0 15 00 00 90 
2593.7094    1          18FF20EFx     Rx d 8 F1 90 C0 07 7D EF 00 6B 
2593.7099    1          0C040B97x     Rx d 8 7E 7D CC 00 FF FF FF 03 
2593.7105    1          18F0090Bx     Rx d 8 FF FF FF FF FF FF FF 80 
2593.7137    1          0CFF83AAx     Rx d 8 FF 9D B7 74 80 3B 01 74 
2593.7183    1          0CF00203x     Rx d 8 01 88 0F 00 00 00 00 00 
2593.7189    1          18FEA297x     Rx d 8 00 24 2C 00 F0 0A 00 00 
2593.7194    1          0CF00400x     Rx d 8 11 89 8F E0 15 00 00 8F 
2593.72      1          18FF20EFx     Rx d 8 F1 8F C4 07 7D EF 00 6B 
2593.7205    1          0C00000Bx     Rx d 8 30 FF FF FA FF FF FF 25 
2593.7211    1          18F0090Bx     Rx d 8 FF FF FF FF FF FF FF 80 
2593.7217    1          18FF7097x     Rx d 8 00 7D 00 2F E9 AB 0D 70 
2593.7222    1          08FE6E0Bx     Rx d 8 48 0E 82 0F 22 0E 30 0F 
2593.7228    1          0CFF82BCx     Rx d 8 72 2C C0 80 1E FF FF 6F 
2593.7234    1          0CFF84A0x     Rx d 8 C0 00 C3 00 00 7E 7D 47 
2593.7239    1          18FEBF0Bx     Rx d 8 E5 0E 74 86 71 81 FF FF 
2593.7245    1          18F0010Bx     Rx d 8 00 00 C3 FF FF 01 FF F3 
2593.7251    1          18FEF121x     Rx d 8 FF FF FF FF 00 FF FF FF 
2593.7256    1          18FFA091x     Rx d 8 A0 F0 30 FC FF FF FF 46 
2593.7262    1          18FFFB97x     Rx d 8 14 00 00 00 88 13 0A 18 
2593.7268    1          18FCDC00x     Rx d 8 01 00 00 01 00 00 00 00 
2593.7274    1          18FE4F0Bx     Rx d 8 FF FF FF FF FF FF FF FF 
2593.728     1          18FF8CA9x     Rx d 8 00 00 00 00 00 00 00 00 
2593.7285    1          18F00503x     Rx d 8 7E E8 03 7E 00 00 00 00 
2593.7291    1          0CF00203x     Rx d 8 01 80 0F 00 00 00 00 00 
2593.7297    1          0CF00400x     Rx d 8 11 89 90 E0 15 00 00 90 
2593.7302    1          18FEAD0Bx     Rx d 8 00 00 00 00 FE FE FF FF 
2593.7308    1          18F0090Bx     Rx d 8 FF FF FF FF FF FF FF 80 
2593.7314    1          18FF20EFx     Rx d 8 F1 90 C0 07 7D EF 00 6B 
2593.7319    1          0C040B97x     Rx d 8 7E 7D CC 00 FF FF FF 14 
2593.7325    1          18FFC7BCx     Rx d 8 00 CB C1 D6 00 11 20 00 
2593.7331    1          18FFF897x     Rx d 8 28 14 45 7F F3 3D 3C 04 
2593.7337    1          0CF00300x     Rx d 8 00 1E 00 00 00 00 00 00 
2593.7342    1          18F001ACx     Rx d 8 FF FF FF FF FF FF FF F3 
2593.7348    1          18FEDFEFx     Rx d 8 7D 00 00 00 7D 00 00 00 
2593.7354    1          0CFF83AAx     Rx d 8 FF 9C A1 74 80 36 01 84 
2593.736     1          18FF8DACx     Rx d 8 00 0A 4A 00 00 00 00 00 
2593.7365    1          18FDC40Bx     Rx d 8 00 00 64 F3 FF FF FF FF 
2593.7383    1          0CF00203x     Rx d 8 01 88 0F 00 00 00 00 00 
2593.7389    1          18FEF100x     Rx d 8 00 B4 0D 00 00 00 00 00 
2593.7394    1          0CF00400x     Rx d 8 11 89 8F E0 15 00 00 8F 
2593.74      1          18FF20EFx     Rx d 8 F1 8F C4 07 7D EF 00 6B 
2593.7406    1          18F0090Bx     Rx d 8 FF FF FF FF FF FF FF 80 
2593.7411    1          0CFE6CEEx     Rx d 8 FF FF FF FF FF FF 99 0E 
2593.7417    1          18FF7097x     Rx d 8 00 7D 00 2F E9 B4 0D 90 
2593.7423    1          08FE6E0Bx     Rx d 8 48 0E 90 0F 32 0E 3A 0F 
2593.7428    1          0CFE6C17x     Rx d 8 FF FF FF FF FF FF 99 0E 
2593.7434    1          0CFF82BCx     Rx d 8 72 2B C0 80 1E FF FF 7F 
2593.744     1          0CFF84A0x     Rx d 8 C0 00 C3 00 00 7E 7D 58 
2593.7445    1          18FA0117x     Rx d 8 10 00 F0 C3 0F FF FF FF 
2593.7451    1          18FFF797x     Rx d 8 48 49 00 00 50 C3 62 02 
2593.7447    2          18FFE699x     Rx d 8 8B 3C 9D 15 C4 03 57 55 
2593.7453    2          18FFE899x     Rx d 8 00 00 97 21 FF 13 00 15 
2593.7482    2          10FFE597x     Rx d 8 17 A9 FA C8 A1 15 98 3A 
2593.7547    2          18FFE699x     Rx d 8 8B 3C A5 15 C7 03 57 65 
2593.7553    2          18FFE899x     Rx d 8 00 00 9B 21 FF 13 00 15 
2593.7582    2          10FFE597x     Rx d 8 17 B9 FA C8 A1 15 98 3A 
2593.7588    2          10F01797x     Rx d 8 0B 8B 3C 9D 15 00 00 00 
2593.7648    2          18FFE699x     Rx d 8 8D 3C 98 15 C4 03 57 75 
2593.7653    2          18FFE899x     Rx d 8 00 00 98 21 FE 13 00 15 
2593.7668    2          18FFC13Ax     Rx d 8 04 3C 3D 6C 16 00 00 00 
2593.7682    2          10FFE597x     Rx d 8 17 C9 FA C8 A1 15 98 3A 
2593.7688    2          10FFE497x     Rx d 8 8F 00 00 00 02 00 00 6C 
2593.772     2          18F0089Ex     Rx d 8 86 57 88 08 49 64 00 61 
2593.7483    1          0CF00203x     Rx d 8 01 88 0F 00 00 00 00 00 
2593.7489    1          18FE4A03x     Rx d 8 00 01 00 00 00 00 00 00 
2593.7494    1          0CF00400x     Rx d 8 11 89 90 E0 15 00 00 90 
2593.75      1          18FF20EFx     Rx d 8 F1 90 C4 07 7D EF 00 6B 
2593.7505    1          0C040B97x     Rx d 8 7E 7D CC 00 FF FF FF 25 
2593.7511    1          18F0090Bx     Rx d 8 FF FF FF FF FF FF FF 80 
2593.7537    1          0CFF83AAx     Rx d 8 FF 9C 8C 74 80 2E 01 94 
2593.7583    1          0CF00203x     Rx d 8 01 98 0F 00 00 00 00 00 
2593.7589    1          18FFFE97x     Rx d 8 00 00 00 00 00 00 00 00 
2593.7594    1          0CF00400x     Rx d 8 11 89 90 E0 15 00 00 90 
2593.76      1          18FF20EFx     Rx d 8 F1 90 CC 07 7D EF 00 6B 
2593.7606    1          18F0090Bx     Rx d 8 FF FF FF FF FF FF FF 80 
2593.7611    1          18FF7097x     Rx d 8 00 7D 00 2F E9 BC 0D B0 
2593.762     1          0CFF82BCx     Rx d 8 72 29 C0 80 1E FF FF 8F 
2593.7625    1          08FE6E0Bx     Rx d 8 50 0E 7E 0F 30 0E 3E 0F 
2593.7631    1          0CFF84A0x     Rx d 8 C0 00 C3 00 00 7E 7D 69 
2593.7683    1          0CF00203x     Rx d 8 01 98 0F 00 00 00 00 00 
2593.7689    1          18FF6597x     Rx d 8 01 00 00 00 00 00 00 00 
2593.7694    1          0CF00400x     Rx d 8 11 89 90 E0 15 00 00 90 
2593.77      1          18FF20EFx     Rx d 8 F1 90 CC 07 7D EF 00 6B 
2593.7706    1          0C040B97x     Rx d 8 7E 7D CC 00 FF FF FF 36 
2593.7711    1          18F0090Bx     Rx d 8 FF FF FF FF FF FF FF 80 
2593.7717    1          18FF8CA9x     Rx d 8 00 00 00 00 00 00 00 00 
2593.7723    1          18FEBF0Bx     Rx d 8 F8 0E 73 87 71 82 FF FF 
2593.7743    1          0CFF83AAx     Rx d 8 FF 9B 77 74 80 23 02 A4 
2593.7783    1          0CF00203x     Rx d 8 01 A8 0F 00 00 00 00 00 
2593.7788    1          18FFEB97x     Rx d 8 8D 3C 8D 3C 00 00 00 00 
2593.7794    1          0CF00400x     Rx d 8 11 89 8F E0 15 00 00 8F 
2593.78      1          18FF20EFx     Rx d 8 F1 8F D4 07 7D EF 00 6B 
2593.7805    1          18F0090Bx     Rx d 8 FF FF FF FF FF FF FF 80 
2593.7811    1          18FF7097x     Rx d 8 00 7D 00 2F E9 C5 0D D0 
2593.7817    1          0CF00300x     Rx d 8 00 1E 00 00 00 00 00 00 
2593.7822    1          0CFF82BCx     Rx d 8 72 23 C0 80 1E FF FF 9F 
2593.7744    2          10FFF5F4x     Rx d 8 05 08 7D 8B 00 00 00 00 
2593.7749    2          18FFE699x     Rx d 8 8C 3C 9F 15 C6 03 57 85 
2593.7755    2          18FF5081x     Rx d 8 3D 33 A4 36 C7 DB 54 D2 
2593.7761    2          18FF00EFx     Rx d 8 01 00 00 00 00 00 00 00 
2593.7766    2          18FFE899x     Rx d 8 00 00 9D 21 FF 13 00 15 
2593.7782    2          10FFE597x     Rx d 8 17 D9 FA C8 A1 15 98 3A 
2593.7788    2          10F00697x     Rx d 8 56 61 64 56 00 00 00 05 
2593.7793    2          10F01797x     Rx d 8 0B 8D 3C 98 15 00 00 00 
2593.7813    2          18FFE398x     Rx d 8 0F 00 39 94 0C 00 5F 70 
2593.7822    2          18FFC698x     Rx d 8 40 00 3E 00 00 00 00 00 
2593.7832    2          18FFF298x     Rx d 8 39 14 06 14 00 01 01 AC 
2593.784     2          10FFF6F4x     Rx d 8 40 00 01 00 00 00 00 6D 
2593.7848    2          18FFE699x     Rx d 8 8D 3C 9D 15 C4 03 57 95 
2593.7853    2          18FFE899x     Rx d 8 00 00 9A 21 FE 13 00 15 
2593.7882    2          10FFE597x     Rx d 8 17 E9 FA C8 A1 15 98 3A 
2593.7948    2          18FFE699x     Rx d 8 8D 3C A3 15 C8 03 57 A5 
2593.7953    2          18FFE899x     Rx d 8 00 00 A0 21 FE 13 00 15 
2593.7982    2          10FFE597x     Rx d 8 17 F9 FA C8 A1 15 98 3A 
2593.7988    2          10F01797x     Rx d 8 0B 8D 3C 9D 15 00 00 00 
2593.7828    1          08FE6E0Bx     Rx d 8 58 0E 8A 0F 3A 0E 46 0F 
2593.7834    1          0CFF84A0x     Rx d 8 C0 00 C3 00 00 7E 7D 7A 
2593.7839    1          18FEF117x     Rx d 8 F3 BF 0E CF FF FF FF FF 
2593.7845    1          18FFC7BCx     Rx d 8 00 CB C1 D6 00 11 20 00 
2593.7851    1          18FFC8A0x     Rx d 8 01 10 FF FF 00 FF FF FF 
2593.7857    1          18FFC9A0x     Rx d 8 C3 DF C8 FF FF FF FF FF 
2593.7883    1          0CF00203x     Rx d 8 01 A0 0F 00 00 00 00 00 
2593.7889    1          18FFEA97x     Rx d 8 13 08 01 01 00 00 00 00 
2593.7894    1          0CF00400x     Rx d 8 11 89 90 E0 15 00 00 90 
2593.79      1          18FF20EFx     Rx d 8 F1 90 D0 07 7D EF 00 6B 
2593.7905    1          0C040B97x     Rx d 8 7E 7D CC 00 FF FF FF 47 
2593.7911    1          0CFE6CEEx     Rx d 8 FF FF FF FF FF FF BF 0E 
2593.7917    1          0CFE6C17x     Rx d 8 FF FF FF FF FF FF BF 0E 
2593.7922    1          18F0090Bx     Rx d 8 FF FF FF FF FF FF FF 80 
2593.7928    1          18FA0117x     Rx d 8 10 00 F0 C3 0F FF FF FF 
2593.7937    1          0CFF83AAx     Rx d 8 FF 99 6B 74 80 17 03 B4 
2593.7962    1          0CEFEF0Bx     Rx d 8 CC FA 7D FF FF FF FF 27 
2593.7983    1          0CF00203x     Rx d 8 01 A8 0F 00 00 00 00 00 
2593.7988    1          18FF2997x     Rx d 8 0B 3C 0C 1E 00 E3 00 00 
2593.7994    1          0CF00400x     Rx d 8 11 89 90 E0 15 00 00 90 
2593.8       1          18FF20EFx     Rx d 8 F1 90 D4 07 7D EF 00 6B 
2593.8005    1          18F0090Bx     Rx d 8 FF FF FF FF FF FF FF 80 
2593.8011    1          18FF7097x     Rx d 8 00 7D 00 2F E9 CD 0D F0 
2593.802     1          0CFF82BCx     Rx d 8 72 1A C0 80 1E FF FF AF 
2593.8025    1          08FE6E0Bx     Rx d 8 62 0E 8C 0F 3E 0E 4A 0F 
2593.8031    1          0CFF84A0x     Rx d 8 C0 00 C3 00 00 7E 7D 8B 
2593.8083    1          0CF00203x     Rx d 8 01 A8 0F 00 00 00 00 00 
2593.8088    1          0CF00400x     Rx d 8 11 89 90 E0 15 00 00 90 
2593.8094    1          18FF20EFx     Rx d 8 F1 90 D4 07 7D EF 00 6B 
2593.8099    1          0C040B97x     Rx d 8 7E 7D CC 00 FF FF FF 58 
2593.8048    2          18FFE699x     Rx d 8 8F 3C 9F 15 C5 03 57 B5 
2593.8053    2          18FFE899x     Rx d 8 00 00 9D 21 FE 13 00 15 
2593.8082    2          10FFE597x     Rx d 8 17 09 FA C8 A1 15 98 3A 
2593.8148    2          18FFE699x     Rx d 8 8E 3C A8 15 CA 03 57 C5 
2593.8153    2          18FFE899x     Rx d 8 00 00 A2 21 FE 13 00 15 
2593.8182    2          10FFE597x     Rx d 8 17 19 FA C8 A1 15 98 3A 
2593.8188    2          18FF3197x     Rx d 8 80 0A 7D 0A F3 01 F3 01 
2593.8194    2          10F01797x     Rx d 8 0B 8F 3C 9F 15 00 00 00 
2593.8199    2          10FFE497x     Rx d 8 8F 00 00 00 02 00 00 71 
2593.8246    2          10FFF5F4x     Rx d 8 05 08 7D 8B 00 00 00 00 
2593.8252    2          18FFE699x     Rx d 8 8F 3C 9B 15 C7 03 57 D5 
2593.8257    2          18FFE899x     Rx d 8 00 00 9E 21 FE 13 00 15 
2593.8282    2          10FFE597x     Rx d 8 17 29 FA C8 A1 15 98 3A 
2593.8288    2          18FF3097x     Rx d 8 D5 00 10 00 00 00 00 00 
2593.8319    2          18FFE398x     Rx d 8 0F 00 F5 93 0C 00 5F 80 
2593.8328    2          18FFC698x     Rx d 8 10 00 02 00 00 00 00 00 
2593.8334    2          18F00A9Ex     Rx d 8 82 46 27 02 5F 28 00 6C 
2593.8339    2          18FFF298x     Rx d 8 F5 13 0F 14 00 01 01 AD 
2593.8105    1          18F0090Bx     Rx d 8 FF FF FF FF FF FF FF 80 
2593.8137    1          0CFF83AAx     Rx d 8 FF 99 62 74 80 08 04 C4 
2593.8183    1          0CF00203x     Rx d 8 01 B8 0F 00 00 00 00 00 
2593.8189    1          18FEA297x     Rx d 8 00 24 2C 00 F0 0A 00 00 
2593.8194    1          0CF00400x     Rx d 8 11 89 90 E0 15 00 00 90 
2593.82      1          18FF20EFx     Rx d 8 F1 90 DC 07 7D EF 00 6B 
2593.8205    1          0C00000Bx     Rx d 8 30 FF FF FA FF FF FF 36 
2593.8211    1          18F0090Bx     Rx d 8 FF FF FF FF FF FF FF 80 
2593.8217    1          18FF7097x     Rx d 8 00 7D 00 2F E9 D6 0D 10 
2593.8223    1          0CFF82BCx     Rx d 8 72 0F C0 80 1E FF FF BF 
2593.8228    1          08FE6E0Bx     Rx d 8 72 0E 8E 0F 46 0E 56 0F 
2593.8234    1          0CFF84A0x     Rx d 8 C0 00 C3 00 00 7E 7D 9C 
2593.824     1          18FEBF0Bx     Rx d 8 00 0F 75 85 72 82 FF FF 
2593.8245    1          18F0010Bx     Rx d 8 00 00 C3 FF FF 01 FF F3 
2593.8251    1          18FEF121x     Rx d 8 FF FF FF FF 00 FF FF FF 
2593.8257    1          18FF8CA9x     Rx d 8 00 00 00 00 00 00 00 00 
2593.8263    1          18FE4F0Bx     Rx d 8 FF FF FF FF FF FF FF FF 
2593.8268    1          18FFA091x     Rx d 8 A0 F0 30 FC FF FF FF 46 
2593.8283    1          0CF00203x     Rx d 8 01 B0 0F 00 00 00 00 00 
2593.8288    1          18F00503x     Rx d 8 7E E8 03 7E 00 00 00 00 
2593.8294    1          0CF00400x     Rx d 8 11 89 90 E0 15 00 00 90 
2593.83      1          18FEAD0Bx     Rx d 8 00 00 00 00 FE FE FF FF 
2593.8306    1          18F0090Bx     Rx d 8 FF FF FF FF FF FF FF 80 
2593.8311    1          18FF20EFx     Rx d 8 F1 90 D8 07 7D EF 00 6B 
2593.8317    1          0C040B97x     Rx d 8 7E 7D CC 00 FF FF FF 69 
2593.8323    1          0CF00300x     Rx d 8 00 1E 00 00 00 00 00 00 
2593.8328    1          18FA1117x     Rx d 8 01 00 00 00 00 3C 00 00 
2593.8334    1          18F001ACx     Rx d 8 FF FF FF FF FF FF FF F3 
2593.834     1          0CFF83AAx     Rx d 8 FF 98 5B 74 7F F6 05 D4 
2593.8345    1          18FFC7BCx     Rx d 8 00 CB C1 D6 00 11 20 00 
2593.8363    1          18FDC40Bx     Rx d 8 00 00 64 F3 FF FF FF FF 
2593.8383    1          0CF00203x     Rx d 8 01 B8 0F 00 00 00 00 00 
2593.8389    1          18FEF100x     Rx d 8 00 DE 0D 00 00 00 00 00 
2593.8394    1          0CF00400x     Rx d 8 11 89 8F E0 15 00 00 8F 
2593.8345    2          10FFF6F4x     Rx d 8 40 00 01 00 00 00 00 6E 
2593.835     2          18FFE699x     Rx d 8 8F 3C A3 15 CB 03 57 E5 
2593.8356    2          18FFE899x     Rx d 8 00 00 A3 21 FF 13 00 15 
2593.8382    2          10FFE597x     Rx d 8 17 39 FA C8 A1 15 98 3A 
2593.8388    2          10F01797x     Rx d 8 0B 8F 3C 9B 15 00 00 00 
2593.8449    2          18FFE699x     Rx d 8 90 3C A0 15 C7 03 57 F5 
2593.8454    2          18FFE899x     Rx d 8 00 00 9F 21 FF 13 00 15 
2593.8482    2          10FFE597x     Rx d 8 17 49 FA C8 A1 15 98 3A 
2593.84      1          18FF20EFx     Rx d 8 F1 8F DC 07 7D EF 00 6B 
2593.8406    1          18F0090Bx     Rx d 8 FF FF FF FF FF FF FF 80 
2593.8411    1          0CFE6CEEx     Rx d 8 FF FF FF FF FF FF BF 0E 
2593.8417    1          0CFE6C17x     Rx d 8 FF FF FF FF FF FF BF 0E 
2593.8423    1          08FE6E0Bx     Rx d 8 88 0E A6 0F 4A 0E 5C 0F 
2593.8428    1          0CFF82BCx     Rx d 8 72 02 C0 80 1E FF FF CF 
2593.8434    1          0CFF84A0x     Rx d 8 C0 00 C3 00 00 7E 7D AD 
2593.844     1          18FA0117x     Rx d 8 10 00 F0 C3 0F FF FF FF 
2593.8445    1          18FF7097x     Rx d 8 00 7D 00 2F E9 DE 0D 30 
2593.8483    1          0CF00203x     Rx d 8 01 B8 0F 00 00 00 00 00 
2593.8489    1          18FE4A03x     Rx d 8 00 01 00 00 00 00 00 00 
2593.8494    1          0CF00400x     Rx d 8 11 89 90 E0 15 00 00 90 
2593.85      1          18FF20EFx     Rx d 8 F1 90 DC 07 7D EF 00 6B 
2593.8505    1          0C040B97x     Rx d 8 7E 7D CC 00 FF FF FF 8A 
2593.8511    1          18F0090Bx     Rx d 8 FF FF FF FF FF FF FF 80 
2593.8537    1          0CFF83AAx     Rx d 8 FF 98 54 74 7F E1 07 E4 
2593.8549    2          18FFE699x     Rx d 8 90 3C A5 15 CC 03 57 05 
2593.8554    2          18FFE899x     Rx d 8 00 00 A4 21 FF 13 00 15 
2593.8582    2          10FFE597x     Rx d 8 17 59 FA C8 A1 15 98 3A 
2593.8588    2          10F01797x     Rx d 8 0B 90 3C A0 15 00 00 00 
2593.8649    2          18FFE699x     Rx d 8 91 3C 9E 15 C9 03 57 15 
2593.8654    2          18FFE899x     Rx d 8 00 00 A1 21 FF 13 00 15 
2593.8682    2          10FFE597x     Rx d 8 17 69 FA C8 A1 15 98 3A 
2593.8688    2          10FFE497x     Rx d 8 8F 00 00 00 02 00 00 76 
2593.8732    2          18F0089Ex     Rx d 8 87 5E 88 08 49 64 00 61 
2593.8745    2          10FFECF4x     Rx d 8 26 34 4A 7F CE B3 DD 83 
2593.875     2          18FFE699x     Rx d 8 92 3C A6 15 CC 03 57 25 
2593.8756    2          10FFF5F4x     Rx d 8 05 08 7D 8B 00 00 00 00 
2593.8761    2          18FF5081x     Rx d 8 3D 33 A4 36 C7 DB 54 D2 
2593.8767    2          18FF00EFx     Rx d 8 01 00 00 00 00 00 00 00 
2593.8773    2          18FFE899x     Rx d 8 00 00 A6 21 FF 13 00 15 
2593.8782    2          10FFE597x     Rx d 8 17 79 FA C8 A1 15 98 3A 
2593.8788    2          10F01797x     Rx d 8 0B 91 3C 9E 15 00 00 00 
2593.8583    1          0CF00203x     Rx d 8 01 C0 0F 00 00 00 00 00 
2593.8589    1          18FFFE97x     Rx d 8 00 00 00 00 00 00 00 00 
