date Wed Aug 03 03:09:00 PM 2022
base hex  timestamps absolute 
internal events logged 
// version 7.2.0 
Begin TriggerblockWed Aug 03 03:09:00 PM 2022
0.000000 Start of measurement
12.1242      2          10FFE597x     Rx d 8 1E 59 EE EE 88 13 98 3A 
12.116       1          18FF7097x     Rx d 8 00 00 00 00 00 00 00 90 
12.118       1          18FE1F97x     Rx d 8 01 A3 14 10 27 52 57 00 
12.1187      1          0CFE6CEEx     Rx d 8 FF FF FF FF FF FF 00 00 
12.1193      1          18FE6CEEx     Rx d 8 FF FF FF FF FF FF 00 00 
12.1199      1          0CFE6C17x     Rx d 8 FF FF FF FF FF FF 00 00 
12.1204      1          0CFF83AAx     Rx d 8 FF 7F 80 AF 75 C7 00 16 
12.1242      1          18FF2697x     Rx d 8 EE 3C 01 01 02 20 05 00 
12.1248      1          18FFEA97x     Rx d 8 52 09 01 01 00 00 00 00 
12.1254      1          18FF9197x     Rx d 8 00 01 00 00 7F 7D 00 00 
12.1274      1          18FEF117x     Rx d 8 04 00 00 00 00 00 00 00 
12.1279      1          181E5546x     Rx d 8 E9 FF FF FF FF FF FF FF 
12.1285      1          18FFFB97x     Rx d 8 00 00 00 00 AF 01 73 73 
12.131       1          18FF65AAx     Rx d 8 D3 A7 57 18 00 0A FF FF 
12.1315      1          180B10FFx     Rx d 8 02 00 00 00 00 00 F0 0D 
12.1248      2          18F0089Ex     Rx d 8 80 00 7D 00 54 56 00 00 
12.1254      2          18FFE699x     Rx d 8 98 3A 88 13 1E 00 57 C5 
12.1321      1          18F0010Bx     Rx d 8 00 00 00 00 00 00 00 00 
12.1333      1          18FF90AFx     Rx d 8 00 00 00 00 50 C3 1B 00 
12.1342      1          18FF2697x     Rx d 8 EE 3C 01 01 02 20 05 00 
12.1342      2          10FFE597x     Rx d 8 1E 69 EE EE 88 13 98 3A 
12.1348      2          18FF3197x     Rx d 8 00 00 00 00 00 00 00 00 
12.1354      2          18FF8CA9x     Rx d 8 00 00 00 00 00 00 00 00 
12.136       2          18FFE398x     Rx d 8 0F 00 A4 14 00 00 1F 10 
12.1365      2          18FFE699x     Rx d 8 98 3A 88 13 1E 00 57 D5 
12.1374      2          10FFF5F4x     Rx d 8 05 08 49 82 00 00 00 00 
12.1442      2          10FFE597x     Rx d 8 1E 79 EE EE 88 13 98 3A 
12.1348      1          18FF0297x     Rx d 8 20 00 D0 02 03 00 00 00 
12.1354      1          18FF2997x     Rx d 8 00 26 00 13 00 23 00 00 
12.136       1          18FF7097x     Rx d 8 00 00 00 00 00 00 00 A0 
12.138       1          18FFF897x     Rx d 8 F1 14 79 17 A3 42 43 00 
12.1399      1          0CFF83AAx     Rx d 8 FF 80 81 7A 75 C7 00 26 
12.1413      1          18FEBF0Bx     Rx d 8 00 00 7D 7D 7D 7D 00 00 
12.1442      1          18FEF433x     Rx d 8 11 B4 26 80 C0 FF FF 5E 
12.1448      1          18FF02BBx     Rx d 8 73 04 08 00 00 00 00 00 
12.1453      1          18FF2697x     Rx d 8 EE 3C 01 01 02 20 05 00 
12.1448      2          18FF3097x     Rx d 8 DD 00 08 00 00 00 00 00 
12.1454      2          10FFE497x     Rx d 8 8F 00 00 00 00 00 00 34 
12.1459      2          18FFE699x     Rx d 8 98 3A 88 13 1E 00 57 E5 
12.1459      1          18FF9197x     Rx d 8 00 01 00 00 7F 7D 00 00 
12.1465      1          18FF8CA9x     Rx d 8 00 00 00 00 00 00 00 00 
12.148       1          18FFF797x     Rx d 8 57 52 00 00 54 2D 00 00 
12.1511      1          18FF8DACx     Rx d 8 10 00 00 00 00 00 0A E5 
12.1517      1          180B10FFx     Rx d 8 02 00 00 00 00 00 00 FD 
12.1522      1          18F0010Bx     Rx d 8 00 00 00 00 00 00 00 00 
12.1528      1          18FF65ACx     Rx d 8 00 00 00 00 00 00 00 FF 
12.1536      1          18FF90AFx     Rx d 8 00 00 00 00 50 C3 1B 00 
12.1542      1          18FF2697x     Rx d 8 EE 3C 01 01 02 20 05 00 
12.1548      1          18FEA297x     Rx d 8 0B 0A 00 10 00 00 00 40 
12.1554      1          18FF7097x     Rx d 8 00 00 00 00 00 00 00 B0 
12.1542      2          10FFE597x     Rx d 8 1E 89 EE EE 88 13 98 3A 
12.1548      2          18FFE699x     Rx d 8 98 3A 88 13 1E 00 57 F5 
12.1642      2          10FFE597x     Rx d 8 1E 99 EE EE 88 13 98 3A 
12.1572      1          18FA0117x     Rx d 8 10 C4 01 04 00 00 00 00 
12.1581      1          18FF2797x     Rx d 8 0D 0A 3E 07 00 00 00 00 
12.1599      1          0CFF83AAx     Rx d 8 FF 7F 81 49 75 C7 00 36 
12.1642      1          18FF2697x     Rx d 8 EE 3C 01 01 02 20 05 00 
12.1648      1          18FF65BBx     Rx d 8 00 A0 57 18 00 02 00 00 
12.1654      1          18FF9197x     Rx d 8 00 01 00 00 7F 7D 00 00 
12.1648      2          18FFE699x     Rx d 8 98 3A 88 13 1E 00 57 05 
12.1742      2          10FFE597x     Rx d 8 1E A9 EE EE 88 13 98 3A 
12.1672      1          181E0246x     Rx d 8 00 00 54 00 00 00 00 00 
12.1687      1          0CFE6CEEx     Rx d 8 FF FF FF FF FF FF 00 00 
12.1696      1          18FE6CEEx     Rx d 8 FF FF FF FF FF FF 00 00 
12.1702      1          0CFE6C17x     Rx d 8 FF FF FF FF FF FF 00 00 
12.1713      1          180B10FFx     Rx d 8 02 00 00 00 00 00 10 ED 
12.1718      1          18F0010Bx     Rx d 8 00 00 00 00 00 00 00 00 
12.1736      1          18FF90AFx     Rx d 8 00 00 00 00 50 C3 1B 00 
12.1742      1          18FF2697x     Rx d 8 EE 3C 01 01 02 20 05 00 
12.1748      1          18FF7097x     Rx d 8 00 00 00 00 00 00 00 C0 
12.1773      1          18FEF117x     Rx d 8 04 00 00 00 00 00 00 00 
12.1748      2          18FFE699x     Rx d 8 98 3A 88 13 1E 00 57 15 
12.1842      2          10FFE597x     Rx d 8 1E B9 EE EE 88 13 98 3A 
12.1779      1          18FEF100x     Rx d 8 F7 00 00 0F FF FF FF FF 
12.1799      1          0CFF83AAx     Rx d 8 FF 80 80 B6 75 C7 00 46 
12.1843      1          0CF00C03x     Rx d 8 00 00 00 00 00 00 00 00 
12.1848      1          18FF2697x     Rx d 8 EE 3C 01 01 02 20 05 00 
12.1854      1          18FF9197x     Rx d 8 00 01 00 00 7F 7D 00 00 
12.1848      2          18FF8CA9x     Rx d 8 00 00 00 00 00 00 00 00 
12.1854      2          18FFE398x     Rx d 8 0F 00 A4 14 00 00 1F 20 
12.1859      2          18FFE699x     Rx d 8 98 3A 88 13 1E 00 57 25 
12.1888      2          10FFF5F4x     Rx d 8 05 08 49 82 00 00 00 00 
12.1942      2          10FFE597x     Rx d 8 1E C9 EE EE 88 13 98 3A 
12.1872      1          18FA0517x     Rx d 8 01 10 04 03 41 05 DF 3D 
12.1913      1          180B10FFx     Rx d 8 02 00 00 00 00 00 20 DD 
12.1919      1          180B08FFx     Rx d 8 00 00 00 00 00 00 00 00 
12.1924      1          180B12FFx     Rx d 8 B8 20 16 66 90 16 0A FB 
12.193       1          18FEBF0Bx     Rx d 8 00 00 7D 7D 7D 7D 00 00 
12.1936      1          180B11FFx     Rx d 8 00 00 00 00 00 00 00 00 
12.1942      1          18F0010Bx     Rx d 8 00 00 00 00 00 00 00 00 
12.1947      1          18FF2697x     Rx d 8 EE 3C 01 01 02 20 05 00 
12.1953      1          18FF652Bx     Rx d 8 FF BF 27 00 00 F8 FF FF 
12.1959      1          18FF7097x     Rx d 8 00 00 00 00 00 00 00 D0 
12.1964      1          18FF8CA9x     Rx d 8 00 00 00 00 00 00 00 00 
12.1948      2          10FFE497x     Rx d 8 8F 00 00 00 00 00 00 39 
12.1954      2          18FFE699x     Rx d 8 98 3A 88 13 1E 00 57 35 
12.2042      2          10FFE597x     Rx d 8 1E D9 EE EE 88 13 98 3A 
12.197       1          18FF90AFx     Rx d 8 00 00 00 00 50 C3 1B 00 
12.1976      1          18FA0517x     Rx d 8 02 CF 0F CD 0C F3 CF 7B 
12.1999      1          0CFF83AAx     Rx d 8 FF 80 80 5B 75 C7 00 56 
12.2042      1          18FF2697x     Rx d 8 EE 3C 01 01 02 20 05 00 
12.2048      1          18FF6597x     Rx d 8 01 00 00 00 00 00 00 00 
12.2054      1          18FF9197x     Rx d 8 00 01 00 00 7F 7D 00 00 
12.2048      2          18FFE699x     Rx d 8 98 3A 88 13 1E 00 57 45 
12.2127      2          18F00A9Ex     Rx d 8 82 4E 26 02 54 28 00 AF 
12.2142      2          10FFE597x     Rx d 8 1E E9 EE EE 88 13 98 3A 
12.2072      1          18FA0117x     Rx d 8 10 C4 01 04 00 00 00 00 
12.2078      1          18FA0517x     Rx d 8 03 FF FF FF FF FF FF FD 
12.2113      1          180B10FFx     Rx d 8 02 00 00 00 00 00 30 CD 
12.2119      1          18F0010Bx     Rx d 8 00 00 00 00 00 00 00 00 
12.2137      1          18FF90AFx     Rx d 8 00 00 00 00 50 C3 1B 00 
12.2143      1          18FFEB97x     Rx d 8 98 3A 98 3A 00 00 00 00 
12.2149      1          18FF2697x     Rx d 8 EE 3C 01 01 02 20 05 00 
12.2154      1          18FF7097x     Rx d 8 00 00 00 00 00 00 00 E0 
12.216       1          18FF3397x     Rx d 8 3E FF FF FF FF FF FF FF 
12.2148      2          18FFE699x     Rx d 8 98 3A 88 13 1E 00 57 55 
12.2242      2          10FFE597x     Rx d 8 1E 09 EE EE 88 13 98 3A 
12.2199      1          0CFF83AAx     Rx d 8 FF 80 80 C4 75 C7 00 66 
12.2242      1          18FF2697x     Rx d 8 EE 3C 01 01 02 20 05 00 
12.2248      1          18FFEA97x     Rx d 8 52 09 01 01 00 00 00 00 
12.2254      1          18FF9197x     Rx d 8 00 01 00 00 7F 7D 00 00 
12.2248      2          18F0089Ex     Rx d 8 81 00 7D 00 54 56 00 00 
12.2254      2          18FFE699x     Rx d 8 98 3A 88 13 1E 00 57 65 
12.2342      2          10FFE597x     Rx d 8 1E 19 EE EE 88 13 98 3A 
12.227       1          18FEF117x     Rx d 8 04 00 00 00 00 00 00 00 
12.2276      1          181E5546x     Rx d 8 E9 FF FF FF FF FF FF FF 
12.2313      1          180B10FFx     Rx d 8 02 00 00 00 00 00 40 BD 
12.2319      1          18F0010Bx     Rx d 8 00 00 00 00 00 00 00 00 
12.2337      1          18FF90AFx     Rx d 8 00 00 00 00 50 C3 1B 00 
12.2343      1          18FF0297x     Rx d 8 20 00 C0 02 02 00 00 00 
12.2349      1          18FF2997x     Rx d 8 00 26 00 13 00 23 00 00 
12.2348      2          18FF3197x     Rx d 8 00 00 00 00 00 00 00 00 
12.2354      2          18FF8CA9x     Rx d 8 00 00 00 00 00 00 00 00 
12.236       2          18FFE398x     Rx d 8 0F 00 A4 14 00 00 1F 30 
12.2365      2          18FFE699x     Rx d 8 98 3A 88 13 1E 00 57 75 
12.2374      2          10FFF5F4x     Rx d 8 05 08 49 82 00 00 00 00 
12.2355      1          18FF2697x     Rx d 8 EE 3C 01 01 02 20 05 00 
12.236       1          18FF7097x     Rx d 8 00 00 00 00 00 00 00 F0 
12.2397      1          0CFE6CEEx     Rx d 8 FF FF FF FF FF FF 00 00 
12.2403      1          0CFF83AAx     Rx d 8 FF 80 81 1F 75 C7 00 76 
12.2409      1          18FE6CEEx     Rx d 8 FF FF FF FF FF FF 00 00 
12.2415      1          18FEBF0Bx     Rx d 8 00 00 7D 7D 7D 7D 00 00 
12.242       1          0CFE6C17x     Rx d 8 FF FF FF FF FF FF 00 00 
12.2442      1          18FF2697x     Rx d 8 EE 3C 01 01 02 20 05 00 
12.2448      1          18FF02BBx     Rx d 8 73 04 08 00 00 00 00 00 
12.2442      2          10FFE597x     Rx d 8 1E 29 EE EE 88 13 98 3A 
12.2448      2          18FF3097x     Rx d 8 DD 00 08 00 00 00 00 00 
12.2454      2          10FFE497x     Rx d 8 8F 00 00 00 00 00 00 3E 
12.2459      2          18FFE699x     Rx d 8 98 3A 88 13 1E 00 57 85 
12.2542      2          10FFE597x     Rx d 8 1E 39 EE EE 88 13 98 3A 
12.2548      2          18FFE699x     Rx d 8 98 3A 88 13 1E 00 57 95 
12.2454      1          18FF9197x     Rx d 8 00 01 00 00 7F 7D 00 00 
12.246       1          18FF8CA9x     Rx d 8 00 00 00 00 00 00 00 00 
12.247       1          18FA0617x     Rx d 8 04 10 FF FF FF FF FF FF 
12.2511      1          18FF8DACx     Rx d 8 10 00 00 00 00 00 0B E4 
12.2517      1          180B10FFx     Rx d 8 02 00 00 00 00 00 50 AD 
12.2523      1          18F0010Bx     Rx d 8 00 00 00 00 00 00 00 00 
12.2542      1          18FF2697x     Rx d 8 EE 3C 01 01 02 20 05 00 
12.2548      1          18FEA297x     Rx d 8 0B 0A 00 10 00 00 00 40 
12.2554      1          18FF7097x     Rx d 8 00 00 00 00 00 00 00 00 
12.256       1          18FF90AFx     Rx d 8 00 00 00 00 50 C3 1B 00 
12.2642      2          10FFE597x     Rx d 8 1E 49 EE EE 88 13 98 3A 
12.2574      1          18FA0117x     Rx d 8 10 C4 01 04 00 00 00 00 
12.2599      1          0CFF83AAx     Rx d 8 FF 80 80 54 75 C7 00 86 
12.2642      1          18FF2697x     Rx d 8 EE 3C 01 01 02 20 05 00 
12.2648      1          18FF65BBx     Rx d 8 00 A0 57 18 00 02 00 00 
12.2654      1          18FF9197x     Rx d 8 00 01 00 00 7F 7D 00 00 
12.267       1          181E0246x     Rx d 8 00 00 54 00 00 00 00 00 
12.2648      2          18FFE699x     Rx d 8 98 3A 88 13 1E 00 57 A5 
12.2742      2          10FFE597x     Rx d 8 1E 59 EE EE 88 13 98 3A 
12.2713      1          180B10FFx     Rx d 8 02 00 00 00 00 00 60 9D 
12.2719      1          18F0010Bx     Rx d 8 00 00 00 00 00 00 00 00 
12.2742      1          18FF2697x     Rx d 8 EE 3C 01 01 02 20 05 00 
12.2748      1          18FF7097x     Rx d 8 00 00 00 00 00 00 00 10 
12.2754      1          18FF90AFx     Rx d 8 00 00 00 00 50 C3 1B 00 
12.2771      1          18FEF117x     Rx d 8 04 00 00 00 00 00 00 00 
12.2777      1          18FEF100x     Rx d 8 F7 00 00 0F FF FF FF FF 
12.2748      2          18FFE699x     Rx d 8 98 3A 88 13 1E 00 57 B5 
12.2842      2          10FFE597x     Rx d 8 1E 69 EE EE 88 13 98 3A 
12.2799      1          0CFF83AAx     Rx d 8 FF 80 81 5E 75 C7 00 96 
12.2843      1          0CF00C03x     Rx d 8 00 00 00 00 00 00 00 00 
12.2848      1          18FF2697x     Rx d 8 EE 3C 01 01 02 20 05 00 
12.2854      1          18FF9197x     Rx d 8 00 01 00 00 7F 7D 00 00 
12.2848      2          18FF8CA9x     Rx d 8 00 00 00 00 00 00 00 00 
12.2854      2          18FFE398x     Rx d 8 0F 00 A4 14 00 00 1F 40 
12.286       2          18FFE699x     Rx d 8 98 3A 88 13 1E 00 57 C5 
12.2888      2          10FFECF4x     Rx d 8 F1 B4 78 97 8E B2 D1 E3 
12.2894      2          10FFF5F4x     Rx d 8 05 08 49 82 00 00 00 00 
12.288       1          0CFE6CEEx     Rx d 8 FF FF FF FF FF FF 00 00 
12.2886      1          18FE6CEEx     Rx d 8 FF FF FF FF FF FF 00 00 
12.2892      1          0CFE6C17x     Rx d 8 FF FF FF FF FF FF 00 00 
12.2913      1          180B10FFx     Rx d 8 02 00 00 00 00 00 70 8D 
12.2918      1          180B12FFx     Rx d 8 B8 20 16 66 90 16 0B FA 
12.2924      1          18FEBF0Bx     Rx d 8 00 00 7D 7D 7D 7D 00 00 
12.293       1          180B11FFx     Rx d 8 00 00 00 00 00 00 00 00 
12.2936      1          18F0010Bx     Rx d 8 00 00 00 00 00 00 00 00 
12.2942      1          18FF2697x     Rx d 8 EE 3C 01 01 02 20 05 00 
12.2942      2          10FFE597x     Rx d 8 1E 79 EE EE 88 13 98 3A 
12.2948      2          10F00697x     Rx d 8 66 3C 00 56 00 00 00 05 
12.2954      2          10FFE497x     Rx d 8 8F 00 00 00 00 00 00 43 
12.2959      2          18FFE699x     Rx d 8 98 3A 88 13 1E 00 57 D5 
12.3043      2          10FFE597x     Rx d 8 1E 89 EE EE 88 13 98 3A 
12.2948      1          18FF7097x     Rx d 8 00 00 00 00 00 00 00 20 
12.2954      1          18FF8CA9x     Rx d 8 00 00 00 00 00 00 00 00 
12.296       1          18FF90AFx     Rx d 8 00 00 00 00 50 C3 1B 00 
12.2999      1          0CFF83AAx     Rx d 8 FF 80 81 1F 75 C7 00 A6 
12.3042      1          18FF2697x     Rx d 8 EE 3C 01 01 02 20 05 00 
12.3048      1          18FF6597x     Rx d 8 01 00 00 00 00 00 00 00 
12.3054      1          18FF9197x     Rx d 8 00 01 00 00 7F 7D 00 00 
12.3048      2          18FFE699x     Rx d 8 98 3A 88 13 1E 00 57 E5 
12.3143      2          10FFE597x     Rx d 8 1E 99 EE EE 88 13 98 3A 
12.3148      2          18FFE699x     Rx d 8 98 3A 88 13 1E 00 57 F5 
12.3068      1          18FA0117x     Rx d 8 10 C4 01 04 00 00 00 00 
12.3113      1          180B10FFx     Rx d 8 02 00 00 00 00 00 80 7D 
12.3119      1          18F0010Bx     Rx d 8 00 00 00 00 00 00 00 00 
12.3143      1          18FF3397x     Rx d 8 3F FF FF FF FF FF FF FF 
12.3148      1          18FFEB97x     Rx d 8 98 3A 98 3A 00 00 00 00 
12.3154      1          18FF2697x     Rx d 8 EE 3C 01 01 02 20 05 00 
12.3242      2          10FFE597x     Rx d 8 1E A9 EE EE 88 13 98 3A 
12.316       1          18FF7097x     Rx d 8 00 00 00 00 00 00 00 30 
12.3165      1          18FF90AFx     Rx d 8 00 00 00 00 50 C3 1B 00 
12.3199      1          0CFF83AAx     Rx d 8 FF 80 80 70 75 C7 00 B6 
12.3242      1          18FF2697x     Rx d 8 EE 3C 01 01 02 20 05 00 
12.3248      1          18FFEA97x     Rx d 8 52 09 01 01 00 00 00 00 
12.3254      1          18FF9197x     Rx d 8 00 01 00 00 7F 7D 00 00 
12.3248      2          18F0089Ex     Rx d 8 82 00 7D 00 54 56 00 00 
12.3254      2          18FFE699x     Rx d 8 98 3A 88 13 1E 00 57 05 
12.3343      2          10FFE597x     Rx d 8 1E B9 EE EE 88 13 98 3A 
12.3269      1          18FEF117x     Rx d 8 04 00 00 00 00 00 00 00 
12.3274      1          181E5546x     Rx d 8 E9 FF FF FF FF FF FF FF 
12.3313      1          180B10FFx     Rx d 8 02 00 00 00 00 00 90 6D 
12.3319      1          18F0010Bx     Rx d 8 00 00 00 00 00 00 00 00 
12.3342      1          18FF2697x     Rx d 8 EE 3C 01 01 02 20 05 00 
12.3348      1          18FF0297x     Rx d 8 20 00 B0 02 02 00 00 00 
12.3354      1          18FF2997x     Rx d 8 00 26 00 13 00 23 00 00 
12.3348      2          18FF3197x     Rx d 8 00 00 00 00 00 00 00 00 
12.3354      2          18FF8CA9x     Rx d 8 00 00 00 00 00 00 00 00 
12.336       2          18FFE398x     Rx d 8 0F 00 A4 14 00 00 1F 50 
12.3365      2          18FFE699x     Rx d 8 98 3A 88 13 1E 00 57 15 
12.3374      2          10FFF5F4x     Rx d 8 05 08 49 82 00 00 00 00 
12.336       1          18FF7097x     Rx d 8 00 00 00 00 00 00 00 40 
12.3368      1          18FF90AFx     Rx d 8 00 00 00 00 50 C3 1B 00 
12.3379      1          0CFE6CEEx     Rx d 8 FF FF FF FF FF FF 00 00 
12.3386      1          18FE6CEEx     Rx d 8 FF FF FF FF FF FF 00 00 
12.3392      1          0CFE6C17x     Rx d 8 FF FF FF FF FF FF 00 00 
12.3399      1          0CFF83AAx     Rx d 8 FF 80 81 A4 75 C7 00 C6 
12.3407      1          18FEE017x     Rx d 8 FF FF FF FF 10 01 00 00 
12.3413      1          18FEE0EEx     Rx d 8 10 01 00 00 10 01 00 00 
12.3418      1          18FEBF0Bx     Rx d 8 00 00 7D 7D 7D 7D 00 00 
12.3442      1          18FEF433x     Rx d 8 12 B3 26 80 C0 FF FF 5E 
12.3448      1          18FF02BBx     Rx d 8 73 04 08 00 00 00 00 00 
12.3453      1          18FF2697x     Rx d 8 EE 3C 01 01 02 20 05 00 
12.3443      2          10FFE597x     Rx d 8 1E C9 EE EE 88 13 98 3A 
12.3448      2          18FF3097x     Rx d 8 DD 00 08 00 00 00 00 00 
12.3454      2          10FFE497x     Rx d 8 8F 00 00 00 00 00 00 48 
12.3459      2          18FFE699x     Rx d 8 98 3A 88 13 1E 00 57 25 
12.3542      2          10FFE597x     Rx d 8 1E D9 EE EE 88 13 98 3A 
12.3459      1          18FF9197x     Rx d 8 00 01 00 00 7F 7D 00 00 
12.3465      1          18FF8CA9x     Rx d 8 00 00 00 00 00 00 00 00 
12.3511      1          18FF8DACx     Rx d 8 10 00 00 00 00 00 0C E3 
12.3517      1          180B10FFx     Rx d 8 02 00 00 00 00 00 A0 5D 
12.3523      1          18F0010Bx     Rx d 8 00 00 00 00 00 00 00 00 
12.3542      1          18FF2697x     Rx d 8 EE 3C 01 01 02 20 05 00 
12.3548      1          18FEA297x     Rx d 8 0B 0A 00 10 00 00 00 40 
12.3554      1          18FF7097x     Rx d 8 00 00 00 00 00 00 00 50 
12.3548      2          18FFE699x     Rx d 8 98 3A 88 13 1E 00 57 35 
12.3642      2          10FFE597x     Rx d 8 1E E9 EE EE 88 13 98 3A 
12.3648      2          18FFE699x     Rx d 8 98 3A 88 13 1E 00 57 45 
12.3571      1          18FA0117x     Rx d 8 10 C4 01 04 00 00 00 00 
12.3577      1          18FF90AFx     Rx d 8 00 00 00 00 50 C3 1B 00 
12.3599      1          0CFF83AAx     Rx d 8 FF 80 80 E7 75 C7 00 D6 
12.3642      1          18FF2697x     Rx d 8 EE 3C 01 01 02 20 05 00 
12.3648      1          18FF65BBx     Rx d 8 00 A0 57 18 00 02 00 00 
12.3654      1          18FF9197x     Rx d 8 00 01 00 00 7F 7D 00 00 
12.3668      1          181E0246x     Rx d 8 00 00 54 00 00 00 00 00 
12.3743      2          10FFE597x     Rx d 8 1E 09 EE EE 88 13 98 3A 
12.3748      2          18FFE699x     Rx d 8 98 3A 88 13 1E 00 57 55 
12.3674      1          18FA1017x     Rx d 8 26 02 FF FF FF FF FF FF 
12.3679      1          18FFBB17x     Rx d 8 00 00 01 00 00 00 00 00 
12.3713      1          180B10FFx     Rx d 8 02 00 00 00 00 00 B0 4D 
12.3719      1          18F0010Bx     Rx d 8 00 00 00 00 00 00 00 00 
12.3742      1          18FF2697x     Rx d 8 EE 3C 01 01 02 20 05 00 
12.3748      1          18FF7097x     Rx d 8 00 00 00 00 00 00 00 60 
12.3769      1          18FEF117x     Rx d 8 04 00 00 00 00 00 00 00 
12.3843      2          10FFE597x     Rx d 8 1E 19 EE EE 88 13 98 3A 
12.3775      1          18FA2017x     Rx d 8 FF 00 FF FF FF FF FF FF 
12.3781      1          18FEF100x     Rx d 8 F7 00 00 0F FF FF FF FF 
12.3787      1          18FF65AFx     Rx d 8 01 20 00 00 00 00 0D 04 
12.3792      1          18FF90AFx     Rx d 8 00 00 00 00 50 C3 1B 00 
12.3799      1          0CFF83AAx     Rx d 8 FF 80 81 5E 75 C7 00 E6 
12.3843      1          0CF00C03x     Rx d 8 00 00 00 00 00 00 00 00 
12.3848      1          18FF2697x     Rx d 8 EE 3C 01 01 02 20 05 00 
12.3848      2          18FF8CA9x     Rx d 8 00 00 00 00 00 00 00 00 
12.3854      2          18FFE398x     Rx d 8 0F 00 A3 14 00 00 1F 60 
12.386       2          18FFE699x     Rx d 8 98 3A 88 13 1E 00 57 65 
12.3888      2          10FFF5F4x     Rx d 8 05 08 49 82 00 00 00 00 
12.3854      1          18FF9197x     Rx d 8 00 01 00 00 7F 7D 00 00 
12.3866      1          18FA0517x     Rx d 8 01 10 04 03 41 05 DF 3D 
12.3872      1          18FEAE30x     Rx d 8 00 00 00 00 00 00 00 00 
12.3878      1          0CFE6CEEx     Rx d 8 FF FF FF FF FF FF 00 00 
12.3884      1          18FE6CEEx     Rx d 8 FF FF FF FF FF FF 00 00 
12.389       1          0CFE6C17x     Rx d 8 FF FF FF FF FF FF 00 00 
12.3913      1          180B10FFx     Rx d 8 02 00 00 00 00 00 C0 3D 
12.3918      1          180B12FFx     Rx d 8 B8 20 16 66 90 16 0C F9 
12.3924      1          18FEBF0Bx     Rx d 8 00 00 7D 7D 7D 7D 00 00 
12.393       1          180B11FFx     Rx d 8 00 00 00 00 00 00 00 00 
12.3936      1          18F0010Bx     Rx d 8 00 00 00 00 00 00 00 00 
12.3942      1          18FF2697x     Rx d 8 EE 3C 01 01 02 20 05 00 
12.3948      1          18FF7097x     Rx d 8 00 00 00 00 00 00 00 70 
12.3943      2          10FFE597x     Rx d 8 1E 29 EE EE 88 13 98 3A 
12.3948      2          10FFE497x     Rx d 8 8F 00 00 00 00 00 00 4D 
12.3954      2          18FFE699x     Rx d 8 98 3A 88 13 1E 00 57 75 
12.3974      2          18FFEDF4x     Rx d 8 EF 0C EA 0C 9E 02 8A 02 
12.4043      2          10FFE597x     Rx d 8 1E 39 EE EE 88 13 98 3A 
12.3954      1          18FF8CA9x     Rx d 8 00 00 00 00 00 00 00 00 
12.3967      1          18FA0517x     Rx d 8 02 CF 0F CD 0C F3 CF 7B 
12.3985      1          18FF90AFx     Rx d 8 00 00 00 00 50 C3 1B 00 
12.3999      1          0CFF83AAx     Rx d 8 FF 80 81 57 75 C7 00 F6 
12.4042      1          18FF2697x     Rx d 8 EE 3C 01 01 02 20 05 00 
12.4048      1          18FF6597x     Rx d 8 01 00 00 00 00 00 00 00 
12.4054      1          18FF9197x     Rx d 8 00 01 00 00 7F 7D 00 00 
12.4048      2          18FFE699x     Rx d 8 98 3A 88 13 1E 00 57 85 
12.4074      2          18FFEEF4x     Rx d 8 0D 0A 3E 07 8A 02 00 00 
12.4143      2          10FFE597x     Rx d 8 1E 49 EE EE 88 13 98 3A 
12.4148      2          18FFE699x     Rx d 8 98 3A 88 13 1E 00 57 95 
12.4067      1          18FA0117x     Rx d 8 10 C4 01 04 00 00 00 00 
12.4073      1          18FA0517x     Rx d 8 03 FF FF FF FF FF FF FD 
12.4113      1          180B10FFx     Rx d 8 02 00 00 00 00 00 D0 2D 
12.4119      1          18F0010Bx     Rx d 8 00 00 00 00 00 00 00 00 
12.4143      1          18FF3397x     Rx d 8 40 FF FF FF FF FF FF FF 
12.4148      1          18FFEB97x     Rx d 8 98 3A 98 3A 00 00 00 00 
12.4154      1          18FF2697x     Rx d 8 EE 3C 01 01 02 20 05 00 
12.4174      2          18F113F4x     Rx d 8 29 EF 0C 0B EA 0C 01 01 
12.4243      2          10FFE597x     Rx d 8 1E 59 EE EE 88 13 98 3A 
12.416       1          18FF7097x     Rx d 8 00 00 00 00 00 00 00 80 
12.4165      1          18FA1017x     Rx d 8 26 02 FF FF FF FF FF FF 
12.418       1          18FE4A97x     Rx d 8 29 EF 0C 0B EA 0C 01 01 
12.4189      1          18FF90AFx     Rx d 8 00 00 00 00 50 C3 1B 00 
12.4199      1          0CFF83AAx     Rx d 8 FF 80 81 C7 75 C7 00 06 
12.4242      1          18FF2697x     Rx d 8 EE 3C 01 01 02 20 05 00 
12.4248      1          18FFEA97x     Rx d 8 52 09 01 01 00 00 00 00 
12.4254      1          18FF9197x     Rx d 8 00 01 00 00 7F 7D 00 00 
12.4248      2          18F0089Ex     Rx d 8 83 00 7D 00 54 56 00 00 
12.4254      2          18FFE699x     Rx d 8 98 3A 88 13 1E 00 57 A5 
12.4274      2          18F114F4x     Rx d 8 09 43 04 41 01 01 FF FF 
12.4343      2          10FFE597x     Rx d 8 1E 69 EE EE 88 13 98 3A 
12.4267      1          18FEF117x     Rx d 8 04 00 00 00 00 00 00 00 
12.4273      1          181E5546x     Rx d 8 E9 FF FF FF FF FF FF FF 
12.428       1          18FE4B97x     Rx d 8 09 43 04 41 01 01 FF FF 
12.4313      1          180B10FFx     Rx d 8 02 00 00 00 00 00 E0 1D 
12.4319      1          18F0010Bx     Rx d 8 00 00 00 00 00 00 00 00 
12.4342      1          18FF2697x     Rx d 8 EE 3C 01 01 02 20 05 00 
12.4348      1          18FF0297x     Rx d 8 20 00 B0 02 02 00 00 00 
12.4354      1          18FF2997x     Rx d 8 00 26 00 13 00 23 00 00 
12.4348      2          18FF3197x     Rx d 8 00 00 00 00 00 00 00 00 
12.4354      2          18FF8CA9x     Rx d 8 00 00 00 00 00 00 00 00 
12.436       2          18FFE398x     Rx d 8 0F 00 A3 14 00 00 1F 70 
12.4366      2          18FFE699x     Rx d 8 98 3A 88 13 1E 00 57 B5 
12.4374      2          18FFF0F4x     Rx d 8 00 00 00 00 00 00 00 00 
12.438       2          10FFF5F4x     Rx d 8 05 08 49 82 00 00 00 00 
12.4443      2          18FE8097x     Rx d 8 00 00 00 00 00 00 00 00 
12.4448      2          18FF3097x     Rx d 8 DD 00 08 00 00 00 00 00 
12.436       1          18FF7097x     Rx d 8 00 00 00 00 00 00 00 90 
12.4368      1          18FA0217x     Rx d 8 FF FF 00 00 00 00 FF FF 
12.4381      1          18FE6197x     Rx d 8 0A 01 00 00 00 00 00 00 
12.4391      1          18FF90AFx     Rx d 8 00 00 00 00 50 C3 1B 00 
12.4399      1          0CFF83AAx     Rx d 8 FF 7F 81 5E 75 C7 00 16 
12.4413      1          18FEBF0Bx     Rx d 8 00 00 7D 7D 7D 7D 00 00 
12.4443      1          18FE9097x     Rx d 8 01 01 00 05 01 FF FF FF 
12.4448      1          18FF02BBx     Rx d 8 73 04 08 00 00 00 00 00 
12.4454      1          18FF2697x     Rx d 8 EE 3C 01 01 02 20 05 00 
12.446       1          18FF9197x     Rx d 8 00 01 00 00 7F 7D 00 00 
12.4454      2          10FFE597x     Rx d 8 1E 79 EE EE 88 13 98 3A 
12.446       2          10FFE497x     Rx d 8 8F 00 00 00 00 00 00 52 
12.4465      2          18FFE699x     Rx d 8 98 3A 88 13 1E 00 57 C5 
12.4474      2          10FFF39Fx     Rx d 8 02 54 2D 00 00 00 00 B3 
12.4543      2          10FFE597x     Rx d 8 1E 89 EE EE 88 13 98 3A 
12.4466      1          18FA0617x     Rx d 8 04 10 FF FF FF FF FF FF 
12.4471      1          18FF8CA9x     Rx d 8 00 00 00 00 00 00 00 00 
12.4481      1          18FF2897x     Rx d 8 21 0A 1A 09 10 1B 9A 00 
12.4511      1          18FF8DACx     Rx d 8 10 00 00 00 00 00 0D E2 
12.4517      1          180B10FFx     Rx d 8 02 00 00 00 00 00 F0 0D 
12.4523      1          18F0010Bx     Rx d 8 00 00 00 00 00 00 00 00 
12.4542      1          18FEEC97x     Rx d 8 11 0D 41 36 37 35 31 00 
12.4548      1          18FEA297x     Rx d 8 0B 0A 00 10 00 00 00 40 
12.4554      1          18FF2697x     Rx d 8 EE 3C 01 01 02 20 05 00 
12.4548      2          18FFE699x     Rx d 8 98 3A 88 13 1E 00 57 D5 
12.4559      1          18FF7097x     Rx d 8 00 00 00 00 00 00 00 A0 
12.4566      1          18FA0117x     Rx d 8 10 C4 01 04 00 00 00 00 
12.4572      1          18FA0B17x     Rx d 8 FF FF FF FF FF FF FF FF 
12.4577      1          18FA1117x     Rx d 8 01 40 00 00 01 01 01 00 
12.4594      1          0CFE6CEEx     Rx d 8 FF FF FF FF FF FF 00 00 
12.46        1          0CFF83AAx     Rx d 8 FF 80 80 D2 75 C7 00 26 
12.4605      1          18FE6CEEx     Rx d 8 FF FF FF FF FF FF 00 00 
12.4611      1          18FF90AFx     Rx d 8 00 00 00 00 50 C3 1B 00 
12.4625      1          0CFE6C17x     Rx d 8 FF FF FF FF FF FF 00 00 
12.4642      1          18FF2697x     Rx d 8 EE 3C 01 01 02 20 05 00 
12.4648      1          18FF65BBx     Rx d 8 00 A0 57 18 00 02 00 00 
12.4654      1          18FF9197x     Rx d 8 00 01 00 00 7F 7D 00 00 
12.4664      1          181E0246x     Rx d 8 00 00 54 00 00 00 00 00 
12.4643      2          10FFE597x     Rx d 8 1E 99 EE EE 88 13 98 3A 
12.4648      2          18FFE699x     Rx d 8 98 3A 88 13 1E 00 57 E5 
12.4743      2          10FFE597x     Rx d 8 1E A9 EE EE 88 13 98 3A 
12.4713      1          180B10FFx     Rx d 8 02 00 00 00 00 00 00 FD 
12.4719      1          18F0010Bx     Rx d 8 00 00 00 00 00 00 00 00 
12.4742      1          18FFF997x     Rx d 8 EF 0C EA 0C 9E 02 8A 02 
12.4748      1          18FF2697x     Rx d 8 EE 3C 01 01 02 20 05 00 
12.4754      1          18FF7097x     Rx d 8 00 00 00 00 00 00 00 B0 
12.4748      2          18FFE699x     Rx d 8 98 3A 88 13 1E 00 57 F5 
12.4843      2          10FFE597x     Rx d 8 1E B9 EE EE 88 13 98 3A 
12.4765      1          18FEF117x     Rx d 8 04 00 00 00 00 00 00 00 
12.4771      1          18FEF100x     Rx d 8 F7 00 00 0F FF FF FF FF 
12.4794      1          18FF90AFx     Rx d 8 00 00 00 00 50 C3 1B 00 
12.48        1          0CFF83AAx     Rx d 8 FF 80 81 8F 75 C7 00 36 
12.4843      1          0CF00C03x     Rx d 8 00 00 00 00 00 00 00 00 
12.4848      1          18FF2697x     Rx d 8 EE 3C 01 01 02 20 05 00 
12.4854      1          18FF9197x     Rx d 8 00 01 00 00 7F 7D 00 00 
12.4848      2          18FF8CA9x     Rx d 8 00 00 00 00 00 00 00 00 
12.4854      2          18FFE398x     Rx d 8 0F 00 A3 14 00 00 1F 80 
12.486       2          18FFE899x     Rx d 8 00 00 40 1F A3 14 CB 15 
12.4865      2          18FFE799x     Rx d 8 57 52 9A 01 EE 11 00 01 
12.4871      2          18FFE699x     Rx d 8 98 3A 88 13 1E 00 57 05 
12.4889      2          10FFECF4x     Rx d 8 F1 B4 79 97 8E B2 D1 83 
12.4894      2          10FFF5F4x     Rx d 8 05 08 49 82 00 00 00 00 
12.4913      1          180B10FFx     Rx d 8 02 00 00 00 00 00 10 ED 
12.4919      1          180B12FFx     Rx d 8 B8 20 16 66 90 16 0D F8 
12.4924      1          18FEBF0Bx     Rx d 8 00 00 7D 7D 7D 7D 00 00 
12.493       1          180B11FFx     Rx d 8 00 00 00 00 00 00 00 00 
12.4936      1          18F0010Bx     Rx d 8 00 00 00 00 00 00 00 00 
12.4942      1          18FF2697x     Rx d 8 EE 3C 01 01 02 20 05 00 
12.4948      1          18FF7097x     Rx d 8 00 00 00 00 00 00 00 C0 
12.4943      2          10FFE597x     Rx d 8 1E C9 EE EE 88 13 98 3A 
12.4948      2          10F00697x     Rx d 8 66 3C 00 56 00 00 00 05 
12.4954      2          10FFE497x     Rx d 8 8F 00 00 00 00 00 00 57 
12.496       2          18FFE699x     Rx d 8 98 3A 88 13 1E 00 57 15 
12.5043      2          10FFE597x     Rx d 8 1E D9 EE EE 88 13 98 3A 
12.4954      1          18FF8CA9x     Rx d 8 00 00 00 00 00 00 00 00 
12.4995      1          18FF90AFx     Rx d 8 00 00 00 00 50 C3 1B 00 
12.5001      1          0CFF83AAx     Rx d 8 FF 7F 81 18 75 C7 00 46 
12.5042      1          18FF2697x     Rx d 8 EE 3C 01 01 02 20 05 00 
12.5048      1          18FF6597x     Rx d 8 01 00 00 00 00 00 00 00 
12.5054      1          18FF9197x     Rx d 8 00 01 00 00 7F 7D 00 00 
12.5048      2          18FFE699x     Rx d 8 98 3A 88 13 1E 00 57 25 
12.5143      2          10FFE597x     Rx d 8 1E E9 EE EE 88 13 98 3A 
12.5148      2          18FFE699x     Rx d 8 98 3A 88 13 1E 00 57 35 
12.5063      1          18FA0117x     Rx d 8 10 C4 01 04 00 00 00 00 
12.5088      1          0CFE6CEEx     Rx d 8 FF FF FF FF FF FF 00 00 
12.5094      1          18FE6CEEx     Rx d 8 FF FF FF FF FF FF 00 00 
12.51        1          0CFE6C17x     Rx d 8 FF FF FF FF FF FF 00 00 
12.5113      1          180B10FFx     Rx d 8 02 00 00 00 00 00 20 DD 
12.5119      1          18F0010Bx     Rx d 8 00 00 00 00 00 00 00 00 
12.5143      1          18FF3397x     Rx d 8 41 FF FF FF FF FF FF FF 
12.5148      1          18FFEB97x     Rx d 8 98 3A 98 3A 00 00 00 00 
12.5154      1          18FF2697x     Rx d 8 EE 3C 01 01 02 20 05 00 
12.5243      2          10FFE597x     Rx d 8 1E 09 EE EE 88 13 98 3A 
12.516       1          18FF7097x     Rx d 8 00 00 00 00 00 00 00 D0 
12.5196      1          18FF90AFx     Rx d 8 00 00 00 00 50 C3 1B 00 
12.5202      1          0CFF83AAx     Rx d 8 FF 80 81 B2 75 C7 00 56 
12.5242      1          18FF2697x     Rx d 8 EE 3C 01 01 02 20 05 00 
12.5248      1          18FFEA97x     Rx d 8 52 09 01 01 00 00 00 00 
12.5254      1          18FF9197x     Rx d 8 00 01 00 00 7F 7D 00 00 
12.5264      1          18FEF117x     Rx d 8 04 00 00 00 00 00 00 00 
12.5248      2          18F0089Ex     Rx d 8 84 00 7D 00 54 56 00 00 
12.5254      2          18FFE699x     Rx d 8 98 3A 88 13 1E 00 57 45 
12.5343      2          10FFE597x     Rx d 8 1E 19 EE EE 88 13 98 3A 
12.527       1          181E5546x     Rx d 8 E9 FF FF FF FF FF FF FF 
12.5313      1          180B10FFx     Rx d 8 02 00 00 00 00 00 30 CD 
12.5319      1          18F0010Bx     Rx d 8 00 00 00 00 00 00 00 00 
12.5342      1          18FF2697x     Rx d 8 EE 3C 01 01 02 20 05 00 
12.5348      1          18FF0297x     Rx d 8 20 00 D0 02 03 00 00 00 
12.5349      2          18FF3197x     Rx d 8 00 00 00 00 00 00 00 00 
12.5354      2          18FF8CA9x     Rx d 8 00 00 00 00 00 00 00 00 
12.536       2          18FFE398x     Rx d 8 0F 00 A4 14 00 00 1F 90 
12.5366      2          18FFE699x     Rx d 8 98 3A 88 13 1E 00 57 55 
12.5374      2          10FFF5F4x     Rx d 8 05 08 49 82 00 00 00 00 
12.5381      2          18FF3297x     Rx d 8 87 00 00 FF 01 00 00 00 
12.5443      2          10FFE597x     Rx d 8 1E 29 EE EE 88 13 98 3A 
12.5354      1          18FF2997x     Rx d 8 00 26 00 13 00 23 00 00 
12.536       1          18FF7097x     Rx d 8 00 00 00 00 00 00 00 E0 
12.5381      1          18FE6297x     Rx d 8 00 00 00 00 00 00 00 00 
12.5398      1          18FF90AFx     Rx d 8 00 00 00 00 50 C3 1B 00 
12.5404      1          0CFF83AAx     Rx d 8 FF 80 80 AF 75 C7 00 66 
12.5413      1          18FEBF0Bx     Rx d 8 00 00 7D 7D 7D 7D 00 00 
12.5442      1          18FEF433x     Rx d 8 00 B6 26 C0 C0 F5 FF 5E 
12.5447      1          18FF02BBx     Rx d 8 73 04 08 00 00 00 00 00 
12.5453      1          18FF2697x     Rx d 8 EE 3C 01 01 02 20 05 00 
12.5448      2          18FF3097x     Rx d 8 DD 00 08 00 00 00 00 00 
12.5454      2          10FFE497x     Rx d 8 8F 00 00 00 00 00 00 5C 
12.546       2          18FFE699x     Rx d 8 98 3A 88 13 1E 00 57 65 
12.5481      2          18FF0B97x     Rx d 8 0A A3 14 00 00 00 00 5B 
12.5543      2          10FFE597x     Rx d 8 1E 39 EE EE 88 13 98 3A 
12.5459      1          18FF9197x     Rx d 8 00 01 00 00 7F 7D 00 00 
12.5465      1          18FF8CA9x     Rx d 8 00 00 00 00 00 00 00 00 
12.5481      1          18FE6097x     Rx d 8 00 00 00 00 00 00 00 00 
12.5511      1          18FF8DACx     Rx d 8 10 00 00 00 00 00 0E E1 
12.5517      1          180B10FFx     Rx d 8 02 00 00 00 00 00 40 BD 
12.5523      1          18F0010Bx     Rx d 8 00 00 00 00 00 00 00 00 
12.5543      1          18FF2697x     Rx d 8 EE 3C 01 01 02 20 05 00 
12.5548      1          18FEA297x     Rx d 8 0B 0A 00 10 00 00 00 40 
12.5554      1          18FF7097x     Rx d 8 00 00 00 00 00 00 00 F0 
12.5548      2          18FFE699x     Rx d 8 98 3A 88 13 1E 00 57 75 
12.5643      2          10FFE597x     Rx d 8 1E 49 EE EE 88 13 98 3A 
12.5562      1          18FA0117x     Rx d 8 10 C4 01 04 00 00 00 00 
12.5581      1          18FE5997x     Rx d 8 00 00 00 00 00 00 00 00 
12.5587      1          0CFE6CEEx     Rx d 8 FF FF FF FF FF FF 00 00 
12.5593      1          18FE6CEEx     Rx d 8 FF FF FF FF FF FF 00 00 
12.5599      1          0CFE6C17x     Rx d 8 FF FF FF FF FF FF 00 00 
12.5605      1          0CFF83AAx     Rx d 8 FF 80 81 E3 75 C7 00 76 
12.561       1          18FF90AFx     Rx d 8 00 00 00 00 50 C3 1B 00 
12.5643      1          18FF2697x     Rx d 8 EE 3C 01 01 02 20 05 00 
12.5648      1          18FF65BBx     Rx d 8 00 A0 57 18 00 02 00 00 
12.5654      1          18FF9197x     Rx d 8 00 01 00 00 7F 7D 00 00 
12.5648      2          18FFE699x     Rx d 8 98 3A 88 13 1E 00 57 85 
12.5743      2          10FFE597x     Rx d 8 1E 59 EE EE 88 13 98 3A 
12.5748      2          18FFE699x     Rx d 8 98 3A 88 13 1E 00 57 95 
12.5663      1          181E0246x     Rx d 8 00 00 54 00 00 00 00 00 
12.568       1          18FE4C97x     Rx d 8 00 00 00 00 00 00 00 00 
12.5713      1          180B10FFx     Rx d 8 02 00 00 00 00 00 50 AD 
12.5719      1          18F0010Bx     Rx d 8 00 00 00 00 00 00 00 00 
12.5743      1          18FF2697x     Rx d 8 EE 3C 01 01 02 20 05 00 
12.5748      1          18FF7097x     Rx d 8 00 00 00 00 00 00 00 00 
12.5763      1          18FEF117x     Rx d 8 04 00 00 00 00 00 00 00 
12.5843      2          10FFE597x     Rx d 8 1E 69 EE EE 88 13 98 3A 
12.5768      1          18FEF100x     Rx d 8 F7 00 00 0F FF FF FF FF 
12.5781      1          18FE4297x     Rx d 8 4E 01 00 00 00 00 00 00 
12.58        1          0CFF83AAx     Rx d 8 FF 80 80 7E 75 C7 00 86 
12.5805      1          18FF90AFx     Rx d 8 00 00 00 00 50 C3 1B 00 
12.5843      1          0CF00C03x     Rx d 8 00 00 00 00 00 00 00 00 
12.5848      1          18FF2697x     Rx d 8 EE 3C 01 01 02 20 05 00 
12.5854      1          18FF9197x     Rx d 8 00 01 00 00 7F 7D 00 00 
12.5849      2          18FF8CA9x     Rx d 8 00 00 00 00 00 00 00 00 
12.5854      2          18FFE398x     Rx d 8 0F 00 A4 14 00 00 1F A0 
12.586       2          18FFE699x     Rx d 8 98 3A 88 13 1E 00 57 A5 
12.5888      2          10FFF5F4x     Rx d 8 05 08 49 82 00 00 00 00 
12.5863      1          18FA0517x     Rx d 8 01 10 04 03 41 05 DF 3D 
12.588       1          18FE4197x     Rx d 8 F1 14 19 27 41 54 2D 00 
12.5913      1          180B10FFx     Rx d 8 02 00 00 00 00 00 60 9D 
12.5919      1          180B12FFx     Rx d 8 B8 20 16 66 90 16 0E F7 
12.5925      1          18FEBF0Bx     Rx d 8 00 00 7D 7D 7D 7D 00 00 
12.593       1          180B11FFx     Rx d 8 00 00 00 00 00 00 00 00 
12.5936      1          18F0010Bx     Rx d 8 00 00 00 00 00 00 00 00 
12.5943      1          18FF2697x     Rx d 8 EE 3C 01 01 02 20 05 00 
12.5948      1          18FF7097x     Rx d 8 00 00 00 00 00 00 00 10 
12.5954      1          18FF8CA9x     Rx d 8 00 00 00 00 00 00 00 00 
12.5943      2          10FFE597x     Rx d 8 1E 79 EE EE 88 13 98 3A 
12.5948      2          10FFE497x     Rx d 8 8F 00 00 00 00 00 00 61 
12.5954      2          18FFE699x     Rx d 8 98 3A 88 13 1E 00 57 B5 
12.6043      2          10FFE597x     Rx d 8 1E 89 EE EE 88 13 98 3A 
12.6048      2          18FFE699x     Rx d 8 98 3A 88 13 1E 00 57 C5 
12.5962      1          18FA0517x     Rx d 8 02 CF 0F CD 0C F3 CF 7B 
12.5981      1          18FE4097x     Rx d 8 01 03 01 00 14 00 00 00 
12.6         1          0CFF83AAx     Rx d 8 FF 80 80 4D 75 C7 00 96 
12.6006      1          18FF90AFx     Rx d 8 00 00 00 00 50 C3 1B 00 
12.6043      1          18FF2697x     Rx d 8 EE 3C 01 01 02 20 05 00 
12.6048      1          18FF6597x     Rx d 8 01 00 00 00 00 00 00 00 
12.6054      1          18FF9197x     Rx d 8 00 01 00 00 7F 7D 00 00 
12.6061      1          18FA0117x     Rx d 8 10 C4 01 04 00 00 00 00 
12.6143      2          10FFE597x     Rx d 8 1E 99 EE EE 88 13 98 3A 
12.6066      1          18FA0517x     Rx d 8 03 FF FF FF FF FF FF FD 
12.608       1          18FE2097x     Rx d 8 20 4E 20 4E 00 00 00 00 
12.6087      1          0CFE6CEEx     Rx d 8 FF FF FF FF FF FF 00 00 
12.6093      1          18FE6CEEx     Rx d 8 FF FF FF FF FF FF 00 00 
12.6099      1          0CFE6C17x     Rx d 8 FF FF FF FF FF FF 00 00 
12.6113      1          180B10FFx     Rx d 8 02 00 00 00 00 00 70 8D 
12.6119      1          18F0010Bx     Rx d 8 00 00 00 00 00 00 00 00 
12.6143      1          18FF3397x     Rx d 8 42 FF FF FF FF 00 00 FF 
12.6148      1          18FFEB97x     Rx d 8 98 3A 98 3A 00 00 00 00 
12.6154      1          18FF2697x     Rx d 8 EE 3C 01 01 02 20 05 00 
12.6148      2          18FFE699x     Rx d 8 98 3A 88 13 1E 00 57 D5 
12.6243      2          10FFE597x     Rx d 8 1E A9 EE EE 88 13 98 3A 
12.616       1          18FF7097x     Rx d 8 00 00 00 00 00 00 00 20 
12.618       1          18FE1F97x     Rx d 8 01 A3 14 10 27 52 57 00 
12.62        1          0CFF83AAx     Rx d 8 FF 7F 81 E3 75 C7 00 A6 
12.6211      1          18FF90AFx     Rx d 8 00 00 00 00 50 C3 1B 00 
12.6243      1          18FF2697x     Rx d 8 EE 3C 01 01 02 20 05 00 
12.6248      1          18FFEA97x     Rx d 8 52 09 01 01 00 00 00 00 
12.6254      1          18FF9197x     Rx d 8 00 01 00 00 7F 7D 00 00 
12.6248      2          18F0089Ex     Rx d 8 85 00 7D 00 54 56 00 00 
12.6254      2          18FFE699x     Rx d 8 98 3A 88 13 1E 00 57 E5 
12.6343      2          10FFE597x     Rx d 8 1E B9 EE EE 88 13 98 3A 
12.6262      1          18FEF117x     Rx d 8 04 00 00 00 00 00 00 00 
12.6268      1          181E5546x     Rx d 8 E9 FF FF FF FF FF FF FF 
12.628       1          18FFFB97x     Rx d 8 00 00 00 00 AF 01 73 73 
12.631       1          18FF65AAx     Rx d 8 D3 A7 57 18 00 0A FF FF 
12.6316      1          180B10FFx     Rx d 8 02 00 00 00 00 00 80 7D 
12.6322      1          18F0010Bx     Rx d 8 00 00 00 00 00 00 00 00 
12.6343      1          18FF2697x     Rx d 8 EE 3C 01 01 02 20 05 00 
12.6348      1          18FF0297x     Rx d 8 20 00 D0 02 03 00 00 00 
12.6354      1          18FF2997x     Rx d 8 00 26 00 13 00 23 00 00 
12.636       1          18FF7097x     Rx d 8 00 00 00 00 00 00 00 30 
12.6381      1          18FFF897x     Rx d 8 F1 14 79 17 A3 42 43 00 
12.6349      2          18FF3197x     Rx d 8 00 00 00 00 00 00 00 00 
12.6354      2          18FF8CA9x     Rx d 8 00 00 00 00 00 00 00 00 
12.636       2          18FFE398x     Rx d 8 0F 00 A4 14 00 00 1F B0 
12.6366      2          18FFE699x     Rx d 8 98 3A 88 13 1E 00 57 F5 
12.6374      2          10FFF5F4x     Rx d 8 05 08 49 82 00 00 00 00 
12.6443      2          10FFE597x     Rx d 8 1E C9 EE EE 88 13 98 3A 
12.64        1          0CFF83AAx     Rx d 8 FF 7F 80 AF 75 C7 00 B6 
12.6413      1          18FEBF0Bx     Rx d 8 00 00 7D 7D 7D 7D 00 00 
12.6419      1          18FF90AFx     Rx d 8 00 00 00 00 50 C3 1B 00 
12.6443      1          18FF2697x     Rx d 8 EE 3C 01 01 02 20 05 00 
12.6448      1          18FF02BBx     Rx d 8 73 04 08 00 00 00 00 00 
12.6454      1          18FF9197x     Rx d 8 00 01 00 00 7F 7D 00 00 
12.6449      2          18FF3097x     Rx d 8 DD 00 08 00 00 00 00 00 
12.6454      2          10FFE497x     Rx d 8 8F 00 00 00 00 00 00 66 
12.646       2          18FFE699x     Rx d 8 98 3A 88 13 1E 00 57 05 
12.646       1          18FF8CA9x     Rx d 8 00 00 00 00 00 00 00 00 
12.6466      1          18FA0617x     Rx d 8 04 10 FF FF FF FF FF FF 
12.6481      1          18FFF797x     Rx d 8 57 52 00 00 54 2D 00 00 
12.6512      1          18FF8DACx     Rx d 8 10 00 00 00 00 00 0F E0 
12.6517      1          180B10FFx     Rx d 8 02 00 00 00 00 00 90 6D 
12.6523      1          18F0010Bx     Rx d 8 00 00 00 00 00 00 00 00 
12.6529      1          18FF65ACx     Rx d 8 00 00 00 00 00 00 00 FF 
12.6543      1          18FF2697x     Rx d 8 EE 3C 01 01 02 20 05 00 
12.6548      1          18FEA297x     Rx d 8 0B 0A 00 10 00 00 00 40 
12.6554      1          18FF7097x     Rx d 8 00 00 00 00 00 00 00 40 
12.6543      2          10FFE597x     Rx d 8 1E D9 EE EE 88 13 98 3A 
12.6548      2          18FFE699x     Rx d 8 98 3A 88 13 1E 00 57 15 
12.6643      2          10FFE597x     Rx d 8 1E E9 EE EE 88 13 98 3A 
12.6648      2          18FFE699x     Rx d 8 98 3A 88 13 1E 00 57 25 
12.6562      1          18FA0117x     Rx d 8 10 C4 01 04 00 00 00 00 
12.6581      1          18FF2797x     Rx d 8 0D 0A 3E 07 00 00 00 00 
12.66        1          0CFF83AAx     Rx d 8 FF 7F 81 6C 75 C7 00 C6 
12.6617      1          18FF90AFx     Rx d 8 00 00 00 00 50 C3 1B 00 
12.6643      1          18FF2697x     Rx d 8 EE 3C 01 01 02 20 05 00 
12.6648      1          18FF65BBx     Rx d 8 00 A0 57 18 00 02 00 00 
12.6654      1          18FF9197x     Rx d 8 00 01 00 00 7F 7D 00 00 
12.6743      2          10FFE597x     Rx d 8 1E 09 EE EE 88 13 98 3A 
12.6748      2          18FFE699x     Rx d 8 98 3A 88 13 1F 00 57 35 
12.666       1          181E0246x     Rx d 8 00 00 54 00 00 00 00 00 
12.6713      1          180B10FFx     Rx d 8 02 00 00 00 00 00 A0 5D 
12.6719      1          18F0010Bx     Rx d 8 00 00 00 00 00 00 00 00 
12.6743      1          18FF2697x     Rx d 8 EE 3C 01 01 02 20 05 00 
12.6748      1          18FF7097x     Rx d 8 00 00 00 00 00 00 00 50 
12.676       1          18FEF117x     Rx d 8 04 00 00 00 00 00 00 00 
12.6843      2          10FFE597x     Rx d 8 1E 19 EE EE 88 13 98 3A 
12.6766      1          18FEF100x     Rx d 8 F7 00 00 0F FF FF FF FF 
12.6778      1          0CFE6CEEx     Rx d 8 FF FF FF FF FF FF 00 00 
12.6784      1          18FE6CEEx     Rx d 8 FF FF FF FF FF FF 00 00 
12.68        1          0CFF83AAx     Rx d 8 FF 7F 80 A1 75 C7 00 D6 
12.6806      1          0CFE6C17x     Rx d 8 FF FF FF FF FF FF 00 00 
12.6823      1          18FF90AFx     Rx d 8 00 00 00 00 50 C3 1B 00 
12.6843      1          0CF00C03x     Rx d 8 00 00 00 00 00 00 00 00 
12.6848      1          18FF2697x     Rx d 8 EE 3C 01 01 02 20 05 00 
12.6854      1          18FF9197x     Rx d 8 00 01 00 00 7F 7D 00 00 
12.6849      2          18FF8CA9x     Rx d 8 00 00 00 00 00 00 00 00 
12.6854      2          18FFE398x     Rx d 8 0F 00 A4 14 00 00 1F C0 
12.686       2          18FFE699x     Rx d 8 98 3A 88 13 1F 00 57 45 
12.689       2          10FFECF4x     Rx d 8 F1 B4 78 97 8E B2 D1 A3 
12.6896      2          10FFF5F4x     Rx d 8 05 08 49 82 00 00 00 00 
12.6913      1          180B10FFx     Rx d 8 02 00 00 00 00 00 B0 4D 
12.6919      1          180B08FFx     Rx d 8 00 00 00 00 00 00 00 00 
12.6925      1          180B12FFx     Rx d 8 B8 20 16 66 90 16 0F F6 
12.6931      1          18FEBF0Bx     Rx d 8 00 00 7D 7D 7D 7D 00 00 
12.6936      1          180B11FFx     Rx d 8 00 00 00 00 00 00 00 00 
12.6942      1          18F0010Bx     Rx d 8 00 00 00 00 00 00 00 00 
12.6948      1          18FF2697x     Rx d 8 EE 3C 01 01 02 20 05 00 
12.6954      1          18FF7097x     Rx d 8 00 00 00 00 00 00 00 60 
12.6943      2          10FFE597x     Rx d 8 1E 29 EE EE 88 13 98 3A 
12.6948      2          10F00697x     Rx d 8 66 3C 00 56 00 00 00 05 
12.6954      2          10FFE497x     Rx d 8 8F 00 00 00 00 00 00 6B 
12.696       2          18FFE699x     Rx d 8 98 3A 88 13 1E 00 57 55 
12.7043      2          10FFE597x     Rx d 8 1E 39 EE EE 88 13 98 3A 
12.6959      1          18FF8CA9x     Rx d 8 00 00 00 00 00 00 00 00 
12.7         1          0CFF83AAx     Rx d 8 FF 7F 81 B2 75 C7 00 E6 
12.7024      1          18FF90AFx     Rx d 8 00 00 00 00 50 C3 1B 00 
12.7043      1          18FF2697x     Rx d 8 EE 3C 01 01 02 20 05 00 
12.7048      1          18FF6597x     Rx d 8 01 00 00 00 00 00 00 00 
12.7054      1          18FF9197x     Rx d 8 00 01 00 00 7F 7D 00 00 
12.7048      2          18FFE699x     Rx d 8 98 3A 88 13 1E 00 57 65 
12.7137      2          18F00A9Ex     Rx d 8 82 4E 26 02 56 28 00 B0 
12.7143      2          10FFE597x     Rx d 8 1E 49 EE EE 88 13 98 3A 
12.706       1          18FA0117x     Rx d 8 10 C4 01 04 00 00 00 00 
12.7113      1          180B10FFx     Rx d 8 02 00 00 00 00 00 C0 3D 
12.7119      1          18F0010Bx     Rx d 8 00 00 00 00 00 00 00 00 
12.7143      1          18FF3397x     Rx d 8 43 00 00 00 00 46 00 FF 
12.7148      1          18FFEB97x     Rx d 8 98 3A 98 3A 00 00 00 00 
12.7154      1          18FF2697x     Rx d 8 EE 3C 01 01 02 20 05 00 
12.7148      2          18FFE699x     Rx d 8 98 3A 88 13 1E 00 57 75 
12.7243      2          10FFE597x     Rx d 8 1E 59 EE EE 88 13 98 3A 
12.7248      2          18F0089Ex     Rx d 8 86 00 7D 00 54 56 00 00 
12.716       1          18FF7097x     Rx d 8 00 00 00 00 00 00 00 70 
12.72        1          0CFF83AAx     Rx d 8 FF 80 80 A1 75 C7 00 F6 
12.7224      1          18FF90AFx     Rx d 8 00 00 00 00 50 C3 1B 00 
12.7243      1          18FF2697x     Rx d 8 EE 3C 01 01 02 20 05 00 
12.7248      1          18FFEA97x     Rx d 8 52 09 01 01 00 00 00 00 
12.7254      1          18FF9197x     Rx d 8 00 01 00 00 7F 7D 00 00 
12.726       1          181E5546x     Rx d 8 E9 FF FF FF FF FF FF FF 
12.7254      2          18FFE699x     Rx d 8 98 3A 88 13 1E 00 57 85 
12.7343      2          10FFE597x     Rx d 8 1E 69 EE EE 88 13 98 3A 
12.7266      1          18FEF117x     Rx d 8 04 00 00 00 00 00 00 00 
12.7271      1          0CFE6CEEx     Rx d 8 FF FF FF FF FF FF 00 00 
12.7277      1          18FE6CEEx     Rx d 8 FF FF FF FF FF FF 00 00 
12.7284      1          0CFE6C17x     Rx d 8 FF FF FF FF FF FF 00 00 
12.7313      1          180B10FFx     Rx d 8 02 00 00 00 00 00 D0 2D 
12.7319      1          18F0010Bx     Rx d 8 00 00 00 00 00 00 00 00 
12.7343      1          18FF2697x     Rx d 8 EE 3C 01 01 02 20 05 00 
12.7349      1          18FF0297x     Rx d 8 20 00 C0 02 02 00 00 00 
12.7354      1          18FF2997x     Rx d 8 00 26 00 13 00 23 00 00 
12.7349      2          18FF3197x     Rx d 8 00 00 00 00 00 00 00 00 
12.7354      2          18FF8CA9x     Rx d 8 00 00 00 00 00 00 00 00 
12.736       2          18FFE398x     Rx d 8 0F 00 A4 14 00 00 1F D0 
12.7366      2          18FFE699x     Rx d 8 98 3A 88 13 1E 00 57 95 
12.7375      2          10FFF5F4x     Rx d 8 05 08 49 82 00 00 00 00 
12.7443      2          10FFE597x     Rx d 8 1E 79 EE EE 88 13 98 3A 
12.736       1          18FF7097x     Rx d 8 00 00 00 00 00 00 00 80 
12.74        1          0CFF83AAx     Rx d 8 FF 80 81 C7 75 C7 00 06 
12.7413      1          18FEBF0Bx     Rx d 8 00 00 7D 7D 7D 7D 00 00 
12.7425      1          18FF90AFx     Rx d 8 00 00 00 00 50 C3 1B 00 
12.7442      1          18FEF433x     Rx d 8 01 B0 26 C0 C0 F5 FF 5E 
12.7448      1          18FF02BBx     Rx d 8 73 04 08 00 00 00 00 00 
12.7453      1          18FF2697x     Rx d 8 EE 3C 01 01 02 20 05 00 
12.7449      2          18FF3097x     Rx d 8 DD 00 08 00 00 00 00 00 
12.7454      2          10FFE497x     Rx d 8 8F 00 00 00 00 00 00 70 
12.746       2          18FFE699x     Rx d 8 98 3A 88 13 1E 00 57 A5 
12.7543      2          10FFE597x     Rx d 8 1E 89 EE EE 88 13 98 3A 
12.7548      2          18FFE699x     Rx d 8 98 3A 88 13 1E 00 57 B5 
12.7459      1          18FF9197x     Rx d 8 00 01 00 00 7F 7D 00 00 
12.7465      1          18FF8CA9x     Rx d 8 00 00 00 00 00 00 00 00 
12.7512      1          18FF8DACx     Rx d 8 10 00 00 00 00 00 00 EF 
12.7517      1          180B10FFx     Rx d 8 02 00 00 00 00 00 E0 1D 
12.7523      1          18F0010Bx     Rx d 8 00 00 00 00 00 00 00 00 
12.7543      1          18FF2697x     Rx d 8 EE 3C 01 01 02 20 05 00 
12.7548      1          18FEA297x     Rx d 8 0B 0A 00 10 00 00 00 40 
12.7554      1          18FF7097x     Rx d 8 00 00 00 00 00 00 00 90 
12.756       1          18FA0117x     Rx d 8 10 C4 01 04 00 00 00 00 
12.7643      2          10FFE597x     Rx d 8 1E 99 EE EE 88 13 98 3A 
12.7648      2          18FFC13Ax     Rx d 8 04 43 42 D7 00 00 00 00 
12.76        1          0CFF83AAx     Rx d 8 FF 7F 81 8F 75 C7 00 16 
12.7629      1          18FF90AFx     Rx d 8 00 00 00 00 50 C3 1B 00 
12.7643      1          18FF2697x     Rx d 8 EE 3C 01 01 02 20 05 00 
12.7648      1          18FF65BBx     Rx d 8 00 A0 57 18 00 02 00 00 
12.7654      1          18FF9197x     Rx d 8 00 01 00 00 7F 7D 00 00 
12.7654      2          18FFE699x     Rx d 8 98 3A 88 13 1E 00 57 C5 
12.7743      2          10FFE597x     Rx d 8 1E A9 EE EE 88 13 98 3A 
12.7748      2          18FFE699x     Rx d 8 98 3A 88 13 1F 00 57 D5 
12.766       1          181E0246x     Rx d 8 00 00 54 00 00 00 00 00 
12.7714      1          180B10FFx     Rx d 8 02 00 00 00 00 00 F0 0D 
12.7719      1          18F0010Bx     Rx d 8 00 00 00 00 00 00 00 00 
12.7743      1          18FF2697x     Rx d 8 EE 3C 01 01 02 20 05 00 
12.7749      1          18FF7097x     Rx d 8 00 00 00 00 00 00 00 A0 
12.7758      1          18FEF117x     Rx d 8 04 00 00 00 00 00 00 00 
12.7843      2          10FFE597x     Rx d 8 1E B9 EE EE 88 13 98 3A 
12.7764      1          18FEF100x     Rx d 8 F7 00 00 0F FF FF FF FF 
12.777       1          0CFE6CEEx     Rx d 8 FF FF FF FF FF FF 00 00 
12.7776      1          18FE6CEEx     Rx d 8 FF FF FF FF FF FF 00 00 
12.7782      1          0CFE6C17x     Rx d 8 FF FF FF FF FF FF 00 00 
12.78        1          0CFF83AAx     Rx d 8 FF 7F 81 9D 75 C7 00 26 
12.7831      1          18FF90AFx     Rx d 8 00 00 00 00 50 C3 1B 00 
12.7843      1          0CF00C03x     Rx d 8 00 00 00 00 00 00 00 00 
12.7848      1          18FF2697x     Rx d 8 EE 3C 01 01 02 20 05 00 
12.7854      1          18FF9197x     Rx d 8 00 01 00 00 7F 7D 00 00 
12.7849      2          18FF8CA9x     Rx d 8 00 00 00 00 00 00 00 00 
12.7854      2          18FFE398x     Rx d 8 0F 00 A4 14 00 00 1F E0 
12.786       2          18FFE699x     Rx d 8 98 3A 88 13 1E 00 57 E5 
12.7888      2          10FFF5F4x     Rx d 8 05 08 49 82 00 00 00 00 
12.786       1          18FA0517x     Rx d 8 01 10 04 03 41 05 DF 3D 
12.7914      1          180B10FFx     Rx d 8 02 00 00 00 00 00 00 FD 
12.7919      1          180B12FFx     Rx d 8 B8 20 16 66 90 16 00 05 
12.7925      1          18FEBF0Bx     Rx d 8 00 00 7D 7D 7D 7D 00 00 
12.7931      1          180B11FFx     Rx d 8 00 00 00 00 00 00 00 00 
12.7937      1          18F0010Bx     Rx d 8 00 00 00 00 00 00 00 00 
12.7943      1          18FF2697x     Rx d 8 EE 3C 01 01 02 20 05 00 
12.7948      1          18FF7097x     Rx d 8 00 00 00 00 00 00 00 B0 
12.7954      1          18FF8CA9x     Rx d 8 00 00 00 00 00 00 00 00 
12.7943      2          10FFE597x     Rx d 8 1E C9 EE EE 88 13 98 3A 
12.7949      2          10FFE497x     Rx d 8 8F 00 00 00 00 00 00 75 
12.7954      2          18FFE699x     Rx d 8 98 3A 88 13 1F 00 57 F5 
12.8043      2          10FFE597x     Rx d 8 1E D9 EE EE 88 13 98 3A 
12.8048      2          18FFE699x     Rx d 8 98 3A 88 13 1F 00 57 05 
12.796       1          18FA0517x     Rx d 8 02 CF 0F CD 0C F3 CF 7B 
12.8         1          0CFF83AAx     Rx d 8 FF 7F 81 50 75 C7 00 36 
12.8035      1          18FF90AFx     Rx d 8 00 00 00 00 50 C3 1B 00 
12.8043      1          18FF2697x     Rx d 8 EE 3C 01 01 02 20 05 00 
12.8049      1          18FF6597x     Rx d 8 01 00 00 00 00 00 00 00 
12.8054      1          18FF9197x     Rx d 8 00 01 00 00 7F 7D 00 00 
12.8143      2          10FFE597x     Rx d 8 1E E9 EE EE 88 13 98 3A 
12.8148      2          18FFE699x     Rx d 8 98 3A 88 13 1F 00 57 15 
12.806       1          18FA0117x     Rx d 8 10 C4 01 04 00 00 00 00 
12.8066      1          18FA0517x     Rx d 8 03 FF FF FF FF FF FF FD 
12.8114      1          180B10FFx     Rx d 8 02 00 00 00 00 00 10 ED 
12.8119      1          18F0010Bx     Rx d 8 00 00 00 00 00 00 00 00 
12.8143      1          18FF3397x     Rx d 8 44 B5 03 74 01 00 00 FF 
12.8148      1          18FFEB97x     Rx d 8 98 3A 98 3A 00 00 00 00 
12.8154      1          18FF2697x     Rx d 8 EE 3C 01 01 02 20 05 00 
12.816       1          18FF7097x     Rx d 8 00 00 00 00 00 00 00 C0 
12.8243      2          10FFE597x     Rx d 8 1E 09 EE EE 88 13 98 3A 
12.82        1          0CFF83AAx     Rx d 8 FF 7F 81 57 75 C7 00 46 
12.8238      1          18FF90AFx     Rx d 8 00 00 00 00 50 C3 1B 00 
12.8244      1          18FFEA97x     Rx d 8 52 09 01 01 00 00 00 00 
12.825       1          18FF2697x     Rx d 8 EE 3C 01 01 02 20 05 00 
12.8248      2          18F0089Ex     Rx d 8 87 00 7D 00 54 56 00 00 
12.8254      2          18FFE699x     Rx d 8 98 3A 88 13 1E 00 57 25 
12.8343      2          10FFE597x     Rx d 8 1E 19 EE EE 88 13 98 3A 
12.8255      1          18FF9197x     Rx d 8 00 01 00 00 7F 7D 00 00 
12.8261      1          181E5546x     Rx d 8 E9 FF FF FF FF FF FF FF 
12.8267      1          18FEF117x     Rx d 8 04 00 00 00 00 00 00 00 
12.8273      1          0CFE6CEEx     Rx d 8 FF FF FF FF FF FF 00 00 
12.8279      1          18FE6CEEx     Rx d 8 FF FF FF FF FF FF 00 00 
12.8285      1          0CFE6C17x     Rx d 8 FF FF FF FF FF FF 00 00 
12.8314      1          180B10FFx     Rx d 8 02 00 00 00 00 00 20 DD 
12.8319      1          18F0010Bx     Rx d 8 00 00 00 00 00 00 00 00 
12.8343      1          18FF2697x     Rx d 8 EE 3C 01 01 02 20 05 00 
12.8349      1          18FF0297x     Rx d 8 20 00 B0 02 02 00 00 00 
12.8354      1          18FF2997x     Rx d 8 00 26 00 13 00 22 00 00 
12.8349      2          18FF3197x     Rx d 8 00 00 00 00 00 00 00 00 
12.8355      2          18FF8CA9x     Rx d 8 00 00 00 00 00 00 00 00 
12.836       2          18FFE398x     Rx d 8 0F 00 A4 14 00 00 1F F0 
12.8366      2          18FFE699x     Rx d 8 98 3A 88 13 1F 00 57 35 
12.8375      2          10FFF5F4x     Rx d 8 05 08 49 82 00 00 00 00 
12.8443      2          10FFE597x     Rx d 8 1E 29 EE EE 88 13 98 3A 
12.836       1          18FF7097x     Rx d 8 00 00 00 00 00 00 00 D0 
12.84        1          0CFF83AAx     Rx d 8 FF 80 80 77 75 C7 00 56 
12.8408      1          18FEE017x     Rx d 8 FF FF FF FF 10 01 00 00 
12.8414      1          18FEBF0Bx     Rx d 8 00 00 7D 7D 7D 7D 00 00 
12.8419      1          18FEE0EEx     Rx d 8 10 01 00 00 10 01 00 00 
12.844       1          18FF90AFx     Rx d 8 00 00 00 00 50 C3 1B 00 
12.8446      1          18FF02BBx     Rx d 8 73 04 08 00 00 00 00 00 
12.8452      1          18FF2697x     Rx d 8 EE 3C 01 01 02 20 05 00 
12.8449      2          18FF3097x     Rx d 8 DD 00 08 00 00 00 00 00 
12.8454      2          10FFE497x     Rx d 8 8F 00 00 00 00 00 00 7A 
12.846       2          18FFE699x     Rx d 8 98 3A 88 13 1F 00 57 45 
12.8543      2          10FFE597x     Rx d 8 1E 39 EE EE 88 13 98 3A 
12.8548      2          18FFE699x     Rx d 8 98 3A 88 13 1F 00 57 55 
12.8458      1          18FA0617x     Rx d 8 04 10 FF FF FF FF FF FF 
12.8463      1          18FF9197x     Rx d 8 00 01 00 00 7F 7D 00 00 
12.8469      1          18FF8CA9x     Rx d 8 00 00 00 00 00 00 00 00 
12.8512      1          18FF8DACx     Rx d 8 10 00 00 00 00 00 01 EE 
12.8517      1          180B10FFx     Rx d 8 02 00 00 00 00 00 30 CD 
12.8523      1          18F0010Bx     Rx d 8 00 00 00 00 00 00 00 00 
12.8543      1          18FF2697x     Rx d 8 EE 3C 01 01 02 20 05 00 
12.8548      1          18FEA297x     Rx d 8 0B 0A 00 10 00 00 00 40 
12.8554      1          18FF7097x     Rx d 8 00 00 00 00 00 00 00 E0 
12.856       1          18FA0117x     Rx d 8 10 C4 01 04 00 00 00 00 
12.8643      2          10FFE597x     Rx d 8 1E 49 EE EE 88 13 98 3A 
12.86        1          0CFF83AAx     Rx d 8 FF 80 81 49 75 C7 00 66 
12.864       1          18FF90AFx     Rx d 8 00 00 00 00 50 C3 1B 00 
12.8646      1          18FF65BBx     Rx d 8 00 A0 57 18 00 02 00 00 
12.8652      1          18FF2697x     Rx d 8 EE 3C 01 01 02 20 05 00 
12.8658      1          181E0246x     Rx d 8 00 00 54 00 00 00 00 00 
12.8648      2          18FFE699x     Rx d 8 98 3A 88 13 1F 00 57 65 
12.8743      2          10FFE597x     Rx d 8 1E 59 EE EE 88 13 98 3A 
12.8663      1          18FA1017x     Rx d 8 26 02 FF FF FF FF FF FF 
12.8669      1          18FFBB17x     Rx d 8 00 00 01 00 00 00 00 00 
12.8675      1          18FF9197x     Rx d 8 00 01 00 00 7F 7D 00 00 
12.8714      1          180B10FFx     Rx d 8 02 00 00 00 00 00 40 BD 
12.8719      1          18F0010Bx     Rx d 8 00 00 00 00 00 00 00 00 
12.8743      1          18FF2697x     Rx d 8 EE 3C 01 01 02 20 05 00 
12.8749      1          18FF7097x     Rx d 8 00 00 00 00 00 00 00 F0 
12.8755      1          18FEF117x     Rx d 8 04 00 00 00 00 00 00 00 
12.8748      2          18FFE699x     Rx d 8 98 3A 88 13 1F 00 57 75 
12.8843      2          10FFE597x     Rx d 8 1E 69 EE EE 88 13 98 3A 
12.876       1          18FA2017x     Rx d 8 FF 00 FF FF FF FF FF FF 
12.8766      1          18FEF100x     Rx d 8 F7 00 00 0F FF FF FF FF 
12.88        1          0CFF83AAx     Rx d 8 FF 7F 81 57 75 C7 00 76 
12.8841      1          18FF65AFx     Rx d 8 01 20 00 00 00 00 0D 04 
12.8846      1          18FF2697x     Rx d 8 EE 3C 01 01 02 20 05 00 
12.8852      1          18FF90AFx     Rx d 8 00 00 00 00 50 C3 1B 00 
12.8858      1          18FF9197x     Rx d 8 00 01 00 00 7F 7D 00 00 
12.8863      1          0CF00C03x     Rx d 8 00 00 00 00 00 00 00 00 
12.8849      2          18FF8CA9x     Rx d 8 00 00 00 00 00 00 00 00 
12.8855      2          18FFE398x     Rx d 8 0F 00 A4 14 00 00 1F 00 
12.886       2          18FFE699x     Rx d 8 98 3A 88 13 1F 00 57 85 
12.8891      2          10FFECF4x     Rx d 8 F1 B4 79 97 8E B2 D1 C3 
12.8897      2          18FFF1F4x     Rx d 8 86 03 C2 06 60 14 A2 01 
12.8903      2          10FFF5F4x     Rx d 8 05 08 49 82 00 00 00 00 
12.8943      2          10FFE597x     Rx d 8 1E 79 EE EE 88 13 98 3A 
12.8914      1          180B10FFx     Rx d 8 02 00 00 00 00 00 50 AD 
12.8919      1          180B12FFx     Rx d 8 B8 20 16 66 90 16 01 04 
12.8925      1          18FEBF0Bx     Rx d 8 00 00 7D 7D 7D 7D 00 00 
12.8931      1          180B11FFx     Rx d 8 00 00 00 00 00 00 00 00 
12.8937      1          18F0010Bx     Rx d 8 00 00 00 00 00 00 00 00 
12.8943      1          18FF2697x     Rx d 8 EE 3C 01 01 02 20 05 00 
12.8949      1          18FF7097x     Rx d 8 00 00 00 00 00 00 00 00 
12.8948      2          10F00697x     Rx d 8 66 3C 00 56 00 00 00 05 
12.8954      2          10FFE497x     Rx d 8 8F 00 00 00 00 00 00 7F 
12.896       2          18FFE699x     Rx d 8 98 3A 88 13 1F 00 57 95 
12.8975      2          18FFEDF4x     Rx d 8 EF 0C EA 0C 9E 02 8A 02 
12.898       2          18FF3AF4x     Rx d 8 CC 17 02 00 41 00 D9 FF 
12.9043      2          10FFE597x     Rx d 8 1E 89 EE EE 88 13 98 3A 
12.8954      1          18FF8CA9x     Rx d 8 00 00 00 00 00 00 00 00 
12.8962      1          0CFE6CEEx     Rx d 8 FF FF FF FF FF FF 00 00 
12.8968      1          18FE6CEEx     Rx d 8 FF FF FF FF FF FF 00 00 
12.8974      1          0CFE6C17x     Rx d 8 FF FF FF FF FF FF 00 00 
12.898       1          18FEC1EEx     Rx d 8 90 1A 00 00 90 1A 00 00 
12.8999      1          18FEE6EEx     Rx d 8 2C 09 0F 08 0C 25 7D 7D 
12.9004      1          0CFF83AAx     Rx d 8 FF 7F 80 9A 75 C7 00 86 
12.901       1          18FEE617x     Rx d 8 2C 09 0F 08 0C 25 00 00 
12.9016      1          18FE972Bx     Rx d 8 2C 09 0F 08 0C 25 FF FA 
12.9043      1          18FF2697x     Rx d 8 EE 3C 01 01 02 20 05 00 
12.9049      1          18FF6597x     Rx d 8 01 00 00 00 00 00 00 00 
12.9054      1          18FA0117x     Rx d 8 10 C4 01 04 00 00 00 00 
12.9048      2          18FFE699x     Rx d 8 98 3A 88 13 1F 00 57 A5 
12.9075      2          18FFEEF4x     Rx d 8 0D 0A 3E 07 8A 02 00 00 
12.9143      2          10FFE597x     Rx d 8 1E 99 EE EE 88 13 98 3A 
12.906       1          18FF90AFx     Rx d 8 00 00 00 00 50 C3 1B 00 
12.9066      1          18FF9197x     Rx d 8 00 01 00 00 7F 7D 00 00 
12.9114      1          180B10FFx     Rx d 8 02 00 00 00 00 00 60 9D 
12.912       1          18F0010Bx     Rx d 8 00 00 00 00 00 00 00 00 
12.9143      1          18FF3397x     Rx d 8 45 0A 00 46 00 A0 00 FF 
12.9149      1          18FFEB97x     Rx d 8 98 3A 98 3A 00 00 00 00 
12.9154      1          18FF2697x     Rx d 8 EE 3C 01 01 02 20 05 00 
12.9149      2          18FFE699x     Rx d 8 98 3A 88 13 1F 00 57 B5 
12.9175      2          18F113F4x     Rx d 8 7E F0 0C 0B EA 0C 01 01 
12.9243      2          10FFE597x     Rx d 8 1E A9 EE EE 88 13 98 3A 
12.9249      2          18F0089Ex     Rx d 8 80 00 7D 00 54 56 00 00 
12.916       1          18FA1017x     Rx d 8 26 02 FF FF FF FF FF FF 
12.9166      1          18FF7097x     Rx d 8 00 00 00 00 00 00 00 10 
12.9181      1          18FE4A97x     Rx d 8 7E F0 0C 0B EA 0C 01 01 
12.92        1          0CFF83AAx     Rx d 8 FF 7F 81 03 75 C7 00 96 
12.9243      1          18FF2697x     Rx d 8 EE 3C 01 01 02 20 05 00 
12.9248      1          18FF90AFx     Rx d 8 00 00 00 00 50 C3 1B 00 
12.9254      1          18FFEA97x     Rx d 8 52 09 01 01 00 00 00 00 
12.926       1          181E5546x     Rx d 8 E9 FF FF FF FF FF FF FF 
12.9254      2          18FFE699x     Rx d 8 98 3A 88 13 1F 00 57 C5 
12.9275      2          18F114F4x     Rx d 8 09 43 04 41 01 01 FF FF 
12.9281      2          18FF04F4x     Rx d 8 00 00 00 00 00 00 00 00 
12.9343      2          10FFE597x     Rx d 8 1E B9 EE EE 88 13 98 3A 
12.9266      1          18FEF117x     Rx d 8 04 00 00 00 00 00 00 00 
12.9271      1          18FF9197x     Rx d 8 00 01 00 00 7F 7D 00 00 
12.9281      1          18FE4B97x     Rx d 8 09 43 04 41 01 01 FF FF 
12.9314      1          180B10FFx     Rx d 8 02 00 00 00 00 00 70 8D 
12.9319      1          18F0010Bx     Rx d 8 00 00 00 00 00 00 00 00 
12.9343      1          18FF2697x     Rx d 8 EE 3C 01 01 02 20 05 00 
12.9349      1          18FF0297x     Rx d 8 20 00 B0 02 02 00 00 00 
12.9354      1          18FA0217x     Rx d 8 FF FF 00 00 00 00 FF FF 
12.9349      2          18FF3197x     Rx d 8 00 00 00 00 00 00 00 00 
12.9355      2          18FF8CA9x     Rx d 8 00 00 00 00 00 00 00 00 
12.936       2          18FFE398x     Rx d 8 0F 00 A4 14 00 00 1F 10 
12.9366      2          18FFE699x     Rx d 8 98 3A 88 13 1F 00 57 D5 
12.9375      2          18FFF0F4x     Rx d 8 00 00 00 00 00 00 00 00 
12.9381      2          10FFF5F4x     Rx d 8 05 08 49 82 00 00 00 00 
12.9443      2          18FE8097x     Rx d 8 00 00 00 00 00 00 00 00 
12.936       1          18FF2997x     Rx d 8 00 26 00 13 00 23 00 00 
12.9366      1          18FF7097x     Rx d 8 00 00 00 00 00 00 00 20 
12.94        1          0CFF83AAx     Rx d 8 FF 7F 81 0A 75 C7 00 A6 
12.9414      1          18FEBF0Bx     Rx d 8 00 00 7D 7D 7D 7D 00 00 
12.9442      1          18FEF433x     Rx d 8 11 B4 26 80 C0 FF FF 5E 
12.9448      1          18FF02BBx     Rx d 8 73 04 08 00 00 00 00 00 
12.9454      1          0CFE6CEEx     Rx d 8 FF FF FF FF FF FF 00 00 
12.9449      2          18FF3097x     Rx d 8 DD 00 08 00 00 00 00 00 
12.9454      2          10FFE597x     Rx d 8 1E C9 EE EE 88 13 98 3A 
12.946       2          10FFE497x     Rx d 8 8F 00 00 00 00 00 00 84 
12.9466      2          18FFE699x     Rx d 8 98 3A 88 13 1F 00 57 E5 
12.9475      2          10FFF39Fx     Rx d 8 02 54 2D 00 00 00 00 B4 
12.9459      1          18FF2697x     Rx d 8 EE 3C 01 01 02 20 05 00 
12.9465      1          18FE6CEEx     Rx d 8 FF FF FF FF FF FF 00 00 
12.9471      1          18FF90AFx     Rx d 8 00 00 00 00 50 C3 1B 00 
12.9476      1          0CFE6C17x     Rx d 8 FF FF FF FF FF FF 00 00 
12.9482      1          18FF9197x     Rx d 8 00 01 00 00 7F 7D 00 00 
12.9488      1          18FF8CA9x     Rx d 8 00 00 00 00 00 00 00 00 
12.9494      1          18FE9097x     Rx d 8 01 01 00 05 01 FF FF FF 
12.9512      1          18FF8DACx     Rx d 8 10 00 00 00 00 00 02 ED 
12.9518      1          180B10FFx     Rx d 8 02 00 00 00 00 00 80 7D 
12.9524      1          18F0010Bx     Rx d 8 00 00 00 00 00 00 00 00 
12.9543      1          18FF2697x     Rx d 8 EE 3C 01 01 02 20 05 00 
12.9548      1          18FEA297x     Rx d 8 0B 0A 00 10 00 00 00 40 
12.9554      1          18FA0117x     Rx d 8 10 C4 01 04 00 00 00 00 
12.9543      2          10FFE597x     Rx d 8 1E D9 EE EE 88 13 98 3A 
12.9549      2          18FFE699x     Rx d 8 98 3A 88 13 1F 00 57 F5 
12.9643      2          10FFE597x     Rx d 8 1E E9 EE EE 88 13 98 3A 
12.9648      2          18FFE699x     Rx d 8 98 3A 88 13 1F 00 57 05 
12.956       1          18FA0B17x     Rx d 8 FF FF FF FF FF FF FF FF 
12.9566      1          18FA1117x     Rx d 8 01 40 00 00 01 01 01 00 
12.9571      1          18FF7097x     Rx d 8 00 00 00 00 00 00 00 30 
12.96        1          0CFF83AAx     Rx d 8 FF 7F 81 6C 75 C7 00 B6 
12.9643      1          18FF2697x     Rx d 8 EE 3C 01 01 02 20 05 00 
12.9649      1          18FF65BBx     Rx d 8 00 A0 57 18 00 02 00 00 
12.9654      1          181E0246x     Rx d 8 00 00 54 00 00 00 00 00 
12.966       1          18FF90AFx     Rx d 8 00 00 00 00 50 C3 1B 00 
12.9743      2          10FFE597x     Rx d 8 1E 09 EE EE 88 13 98 3A 
12.9666      1          18FF9197x     Rx d 8 00 01 00 00 7F 7D 00 00 
12.9714      1          180B10FFx     Rx d 8 02 00 00 00 00 00 90 6D 
12.972       1          18F0010Bx     Rx d 8 00 00 00 00 00 00 00 00 
12.9743      1          18FFF997x     Rx d 8 EF 0C EA 0C 9E 02 8A 02 
12.9748      1          18FF2697x     Rx d 8 EE 3C 01 01 02 20 05 00 
12.9754      1          18FEF117x     Rx d 8 04 00 00 00 00 00 00 00 
12.9749      2          18FFE699x     Rx d 8 98 3A 88 13 1F 00 57 15 
12.9843      2          10FFE597x     Rx d 8 1E 19 EE EE 88 13 98 3A 
12.976       1          18FEF100x     Rx d 8 F7 00 00 0F FF FF FF FF 
12.9766      1          18FF7097x     Rx d 8 00 00 00 00 00 00 00 40 
12.98        1          0CFF83AAx     Rx d 8 FF 7F 80 C4 75 C7 00 C6 
12.9843      1          0CF00C03x     Rx d 8 00 00 00 00 00 00 00 00 
12.9849      1          18FF2697x     Rx d 8 EE 3C 01 01 02 20 05 00 
12.9854      1          18FA0517x     Rx d 8 01 10 04 03 41 05 DF 3D 
12.9849      2          18FF8CA9x     Rx d 8 00 00 00 00 00 00 00 00 
12.9855      2          18FFE398x     Rx d 8 0F 00 A4 14 00 00 1F 20 
12.986       2          18FFE699x     Rx d 8 98 3A 88 13 1F 00 57 25 
12.9889      2          10FFF5F4x     Rx d 8 05 08 49 82 00 00 00 00 
12.986       1          18FF90AFx     Rx d 8 00 00 00 00 50 C3 1B 00 
12.9866      1          18FF9197x     Rx d 8 00 01 00 00 7F 7D 00 00 
12.9914      1          180B10FFx     Rx d 8 02 00 00 00 00 00 A0 5D 
12.9919      1          180B12FFx     Rx d 8 B8 20 16 66 90 16 02 03 
12.9925      1          18FEBF0Bx     Rx d 8 00 00 7D 7D 7D 7D 00 00 
12.9931      1          180B11FFx     Rx d 8 00 00 00 00 00 00 00 00 
12.9937      1          18F0010Bx     Rx d 8 00 00 00 00 00 00 00 00 
12.9943      1          18FF2697x     Rx d 8 EE 3C 01 01 02 20 05 00 
12.9949      1          18FF7097x     Rx d 8 00 00 00 00 00 00 00 50 
12.9955      1          0CFE6CEEx     Rx d 8 FF FF FF FF FF FF 00 00 
12.9943      2          10FFE597x     Rx d 8 1E 29 EE EE 88 13 98 3A 

12.9949      2          10FFE497x     Rx d 8 8F 00 00 00 00 00 00 89 
12.9954      2          18FFE699x     Rx d 8 98 3A 88 13 1F 00 57 35 
13.0043      2          10FFE597x     Rx d 8 1E 39 EE EE 88 13 98 3A 
13.0048      2          18FFE699x     Rx d 8 98 3A 88 13 1E 00 57 45 
12.996       1          18FA0517x     Rx d 8 02 CF 0F CD 0C F3 CF 7B 
12.9966      1          18FE6CEEx     Rx d 8 FF FF FF FF FF FF 00 00 
12.9972      1          18FF8CA9x     Rx d 8 00 00 00 00 00 00 00 00 
12.9977      1          0CFE6C17x     Rx d 8 FF FF FF FF FF FF 00 00 
13           1          0CFF83AAx     Rx d 8 FF 7F 80 FC 75 C7 00 D6 
13.0043      1          18FF2697x     Rx d 8 EE 3C 01 01 02 20 05 00 
13.0049      1          18FF6597x     Rx d 8 01 00 00 00 00 00 00 00 
13.0054      1          18FA0117x     Rx d 8 10 C4 01 04 00 00 00 00 
13.0143      2          10FFE597x     Rx d 8 1E 49 EE EE 88 13 98 3A 
13.0149      2          18FFE699x     Rx d 8 98 3A 88 13 1E 00 57 55 
13.0243      2          10FFE597x     Rx d 8 1E 59 EE EE 88 13 98 3A 
13.0249      2          18F0089Ex     Rx d 8 81 00 7D 00 54 56 00 00 
13.0254      2          18FFE699x     Rx d 8 98 3A 88 13 1F 00 57 65 
13.0343      2          10FFE597x     Rx d 8 1E 69 EE EE 88 13 98 3A 
13.006       1          18FA0517x     Rx d 8 03 FF FF FF FF FF FF FD 
13.0066      1          18FF90AFx     Rx d 8 00 00 00 00 50 C3 1B 00 
13.0072      1          18FF9197x     Rx d 8 00 01 00 00 7F 7D 00 00 
13.0114      1          180B10FFx     Rx d 8 02 00 00 00 00 00 B0 4D 
13.012       1          18F0010Bx     Rx d 8 00 00 00 00 00 00 00 00 
13.0143      1          18FF3397x     Rx d 8 46 14 00 0A 00 46 00 FF 
13.0149      1          18FFEB97x     Rx d 8 98 3A 98 3A 00 00 00 00 
13.0154      1          18FF2697x     Rx d 8 EE 3C 01 01 02 20 05 00 
13.016       1          18FF7097x     Rx d 8 00 00 00 00 00 00 00 60 
13.02        1          0CFF83AAx     Rx d 8 FF 80 81 3B 75 C7 00 E6 
13.0243      1          18FF2697x     Rx d 8 EE 3C 01 01 02 20 05 00 
13.0249      1          18FFEA97x     Rx d 8 52 09 01 01 00 00 00 00 
13.0254      1          181E5546x     Rx d 8 E9 FF FF FF FF FF FF FF 
13.026       1          18FEF117x     Rx d 8 04 00 00 00 00 00 00 00 
13.0266      1          18FF9197x     Rx d 8 00 01 00 00 7F 7D 00 00 
13.0274      1          18FF90AFx     Rx d 8 00 00 00 00 50 C3 1B 00 
13.0314      1          180B10FFx     Rx d 8 02 00 00 00 00 00 C0 3D 
13.032       1          18F0010Bx     Rx d 8 00 00 00 00 00 00 00 00 
13.0343      1          18FF2697x     Rx d 8 EE 3C 01 01 02 20 05 00 
13.0349      1          18FF0297x     Rx d 8 20 00 C0 02 02 00 00 00 
13.0354      1          18FF2997x     Rx d 8 00 26 00 13 00 23 00 00 
13.0349      2          18FF3197x     Rx d 8 00 00 00 00 00 00 00 00 
13.0355      2          18FF8CA9x     Rx d 8 00 00 00 00 00 00 00 00 
13.036       2          18FFE398x     Rx d 8 0F 00 A4 14 00 00 1F 30 
13.0366      2          18FFE699x     Rx d 8 98 3A 88 13 1F 00 57 75 
13.0375      2          10FFF5F4x     Rx d 8 05 08 49 82 00 00 00 00 
13.0382      2          18FF3297x     Rx d 8 87 00 00 FF 01 00 00 00 
13.0443      2          10FFE597x     Rx d 8 1E 79 EE EE 88 13 98 3A 
13.036       1          18FF7097x     Rx d 8 00 00 00 00 00 00 00 70 
13.0382      1          18FE6297x     Rx d 8 00 00 00 00 00 00 00 00 
13.0387      1          18FEA197x     Rx d 8 02 1E 00 00 00 00 00 00 
13.04        1          0CFF83AAx     Rx d 8 FF 80 81 0A 75 C7 00 F6 
13.0414      1          18FEBF0Bx     Rx d 8 00 00 7D 7D 7D 7D 00 00 
13.0443      1          18FF2697x     Rx d 8 EE 3C 01 01 02 20 05 00 
13.0449      1          0CFE6CEEx     Rx d 8 FF FF FF FF FF FF 00 00 
13.0454      1          18FA0617x     Rx d 8 04 10 FF FF FF FF FF FF 
13.0449      2          18FF3097x     Rx d 8 DD 00 08 00 00 00 00 00 
13.0454      2          10FFE497x     Rx d 8 8F 00 00 00 00 00 00 8E 
13.046       2          18FFE699x     Rx d 8 98 3A 88 13 1E 00 57 85 
13.0481      2          18FF0B97x     Rx d 8 0A A4 14 00 00 00 00 8D 
13.0543      2          10FFE597x     Rx d 8 1E 89 EE EE 88 13 98 3A 
13.046       1          18FE6CEEx     Rx d 8 FF FF FF FF FF FF 00 00 
13.0466      1          18FF02BBx     Rx d 8 73 04 08 00 00 00 00 00 
13.0472      1          0CFE6C17x     Rx d 8 FF FF FF FF FF FF 00 00 
13.0478      1          18FF9197x     Rx d 8 00 01 00 00 7F 7D 00 00 
13.0483      1          18FE6097x     Rx d 8 00 00 00 00 00 00 00 00 
13.0489      1          18FF8CA9x     Rx d 8 00 00 00 00 00 00 00 00 
13.0495      1          18FF90AFx     Rx d 8 00 00 00 00 50 C3 1B 00 
13.0512      1          18FF8DACx     Rx d 8 10 00 00 00 00 00 03 EC 
13.0518      1          180B10FFx     Rx d 8 02 00 00 00 00 00 D0 2D 
13.0524      1          18F0010Bx     Rx d 8 00 00 00 00 00 00 00 00 
13.0543      1          18FF8897x     Rx d 8 01 32 32 32 32 32 64 03 
13.0549      1          18FEA297x     Rx d 8 0B 0A 00 10 00 00 00 40 
13.0554      1          18FA0117x     Rx d 8 10 C4 01 04 00 00 00 00 
13.056       1          18FF2697x     Rx d 8 EE 3C 01 01 02 20 05 00 
13.0549      2          18FFE699x     Rx d 8 98 3A 88 13 1F 00 57 95 
13.0643      2          10FFE597x     Rx d 8 1E 99 EE EE 88 13 98 3A 
13.0649      2          18FFE699x     Rx d 8 98 3A 88 13 1F 00 57 A5 
13.0566      1          18FF7097x     Rx d 8 00 00 00 00 00 00 00 80 
13.0571      1          18FFD897x     Rx d 8 0A FF FF FF FF FF FF FF 
13.0582      1          18FE5997x     Rx d 8 00 00 00 00 00 00 00 00 
13.06        1          0CFF83AAx     Rx d 8 FF 7F 80 FC 75 C7 00 06 
13.0643      1          18FF2697x     Rx d 8 EE 3C 01 01 02 20 05 00 
13.0649      1          18FF65BBx     Rx d 8 00 A0 57 18 00 02 00 00 
13.0654      1          181E0246x     Rx d 8 00 00 54 00 00 00 00 00 
13.0743      2          10FFE597x     Rx d 8 1E A9 EE EE 88 13 98 3A 
13.066       1          18FF9197x     Rx d 8 00 01 00 00 7F 7D 00 00 
13.0681      1          18FE4C97x     Rx d 8 00 00 00 00 00 00 00 00 
13.0686      1          18FF90AFx     Rx d 8 00 00 00 00 50 C3 1B 00 
13.0714      1          180B10FFx     Rx d 8 02 00 00 00 00 00 E0 1D 
13.072       1          18F0010Bx     Rx d 8 00 00 00 00 00 00 00 00 
13.0743      1          18FF2697x     Rx d 8 EE 3C 01 01 02 20 05 00 
13.0749      1          18FF7097x     Rx d 8 00 00 00 00 00 00 00 90 
13.0749      2          18FFE699x     Rx d 8 98 3A 88 13 1E 00 57 B5 
13.0843      2          10FFE597x     Rx d 8 1E B9 EE EE 88 13 98 3A 
13.0754      1          18FEF100x     Rx d 8 F7 00 00 0F FF FF FF FF 
13.076       1          18FEF117x     Rx d 8 04 00 00 00 00 00 00 00 
13.0781      1          18FE4297x     Rx d 8 4E 01 00 00 00 00 00 00 
13.08        1          0CFF83AAx     Rx d 8 FF 7F 81 49 75 C7 00 16 
13.0843      1          0CF00C03x     Rx d 8 00 00 00 00 00 00 00 00 
13.0849      1          18FF2697x     Rx d 8 EE 3C 01 01 02 20 05 00 
13.0854      1          18FF9197x     Rx d 8 00 01 00 00 7F 7D 00 00 
13.0849      2          18FF8CA9x     Rx d 8 00 00 00 00 00 00 00 00 
13.0855      2          18FFE398x     Rx d 8 0F 00 A4 14 00 00 1F 40 
13.086       2          18FFE699x     Rx d 8 98 3A 88 13 1E 00 57 C5 
13.0889      2          10FFECF4x     Rx d 8 F1 B4 78 97 8E B2 D1 E3 
13.0895      2          10FFF5F4x     Rx d 8 05 08 49 82 00 00 00 00 
13.088       1          18FE4197x     Rx d 8 F1 14 19 27 41 54 2D 00 
13.0886      1          18FF90AFx     Rx d 8 00 00 00 00 50 C3 1B 00 
13.0914      1          180B10FFx     Rx d 8 02 00 00 00 00 00 F0 0D 
13.0919      1          180B12FFx     Rx d 8 B8 20 16 66 90 16 03 02 
13.0925      1          18FEBF0Bx     Rx d 8 00 00 7D 7D 7D 7D 00 00 
13.0931      1          180B11FFx     Rx d 8 00 00 00 00 00 00 00 00 
13.0937      1          18F0010Bx     Rx d 8 00 00 00 00 00 00 00 00 
13.0943      1          18FF2697x     Rx d 8 EE 3C 01 01 02 20 05 00 
13.0949      1          18FF7097x     Rx d 8 00 00 00 00 00 00 00 A0 
13.0943      2          10FFE597x     Rx d 8 1E C9 EE EE 88 13 98 3A 
13.0949      2          10F00697x     Rx d 8 66 3C 00 56 00 00 00 05 
13.0954      2          10FFE497x     Rx d 8 8F 00 00 00 00 00 00 93 
13.096       2          18FFE699x     Rx d 8 98 3A 88 13 1E 00 57 D5 
13.1043      2          10FFE597x     Rx d 8 1E D9 EE EE 88 13 98 3A 
13.1049      2          18FFE699x     Rx d 8 98 3A 88 13 1E 00 57 E5 
13.0955      1          18FF8CA9x     Rx d 8 00 00 00 00 00 00 00 00 
13.0982      1          18FE4097x     Rx d 8 01 03 01 00 14 00 00 00 
13.1         1          0CFF83AAx     Rx d 8 FF 7F 80 7E 75 C7 00 26 
13.1043      1          18FF2697x     Rx d 8 EE 3C 01 01 02 20 05 00 
13.1049      1          18FF6597x     Rx d 8 01 00 00 00 00 00 00 00 
13.1054      1          18FA0117x     Rx d 8 10 C4 01 04 00 00 00 00 
13.1143      2          10FFE597x     Rx d 8 1E E9 EE EE 88 13 98 3A 
13.106       1          18FF9197x     Rx d 8 00 01 00 00 7F 7D 00 00 
13.108       1          18FE2097x     Rx d 8 20 4E 20 4E 00 00 00 00 
13.1094      1          18FF90AFx     Rx d 8 00 00 00 00 50 C3 1B 00 
13.1114      1          180B10FFx     Rx d 8 02 00 00 00 00 00 00 FD 
13.112       1          18F0010Bx     Rx d 8 00 00 00 00 00 00 00 00 
13.1143      1          18FF3397x     Rx d 8 47 32 00 69 00 64 00 FF 
13.1149      1          18FFEB97x     Rx d 8 98 3A 98 3A 00 00 00 00 
13.1154      1          0CFE6CEEx     Rx d 8 FF FF FF FF FF FF 00 00 
13.116       1          18FF2697x     Rx d 8 EE 3C 01 01 02 20 05 00 
13.1149      2          18FFE699x     Rx d 8 98 3A 88 13 1E 00 57 F5 
13.1243      2          10FFE597x     Rx d 8 1E 09 EE EE 88 13 98 3A 
13.1166      1          18FE6CEEx     Rx d 8 FF FF FF FF FF FF 00 00 
13.1171      1          18FF7097x     Rx d 8 00 00 00 00 00 00 00 B0 
13.1177      1          0CFE6C17x     Rx d 8 FF FF FF FF FF FF 00 00 
13.1183      1          18FE1F97x     Rx d 8 01 A3 14 10 27 52 57 00 
13.1201      1          0CFF83AAx     Rx d 8 FF 7F 80 A1 75 C7 00 36 
13.1243      1          18FF2697x     Rx d 8 EE 3C 01 01 02 20 05 00 
13.1249      1          18FFEA97x     Rx d 8 52 09 01 01 00 00 00 00 
13.1254      1          181E5546x     Rx d 8 E9 FF FF FF FF FF FF FF 
13.1249      2          18F0089Ex     Rx d 8 82 00 7D 00 54 56 00 00 
13.1254      2          18FFE699x     Rx d 8 98 3A 88 13 1E 00 57 05 
13.1343      2          10FFE597x     Rx d 8 1E 19 EE EE 88 13 98 3A 
13.126       1          18FEF117x     Rx d 8 04 00 00 00 00 00 00 00 
13.1266      1          18FF9197x     Rx d 8 00 01 00 00 7F 7D 00 00 
13.1281      1          18FFFB97x     Rx d 8 00 00 00 00 AF 01 73 73 
13.1298      1          18FF90AFx     Rx d 8 00 00 00 00 50 C3 1B 00 
13.1311      1          18FF65AAx     Rx d 8 D3 A7 57 18 00 0A FF FF 
13.1317      1          180B10FFx     Rx d 8 02 00 00 00 00 00 10 ED 
13.1323      1          18F0010Bx     Rx d 8 00 00 00 00 00 00 00 00 
13.1343      1          18FF2697x     Rx d 8 EE 3C 01 01 02 20 05 00 
13.1349      1          18FF0297x     Rx d 8 20 00 D0 02 03 00 00 00 
13.1354      1          18FF2997x     Rx d 8 00 26 00 13 00 23 00 00 
13.136       1          18FF7097x     Rx d 8 00 00 00 00 00 00 00 C0 
13.1349      2          18FF3197x     Rx d 8 00 00 00 00 00 00 00 00 
13.1355      2          18FF8CA9x     Rx d 8 00 00 00 00 00 00 00 00 
13.1361      2          18FFE398x     Rx d 8 0F 00 A4 14 00 00 1F 50 
13.1366      2          18FFE699x     Rx d 8 98 3A 88 13 1E 00 57 15 
13.1375      2          10FFF5F4x     Rx d 8 05 08 49 82 00 00 00 00 
13.1443      2          10FFE597x     Rx d 8 1E 29 EE EE 88 13 98 3A 
13.1381      1          18FFF897x     Rx d 8 F1 14 78 17 A3 42 43 00 
13.1401      1          0CFF83AAx     Rx d 8 FF 80 80 7E 75 C7 00 46 
13.1414      1          18FEBF0Bx     Rx d 8 00 00 7D 7D 7D 7D 00 00 
13.1442      1          18FEF433x     Rx d 8 12 B3 26 80 C0 FF FF 5E 
13.1448      1          18FF02BBx     Rx d 8 73 04 08 00 00 00 00 00 
13.1454      1          18FF2697x     Rx d 8 EE 3C 01 01 02 20 05 00 
13.1449      2          18FF3097x     Rx d 8 DD 00 08 00 00 00 00 00 
13.1455      2          10FFE497x     Rx d 8 8F 00 00 00 00 00 00 98 
13.146       2          18FFE699x     Rx d 8 98 3A 88 13 1F 00 57 25 
13.146       1          18FF9197x     Rx d 8 00 01 00 00 7F 7D 00 00 
13.1465      1          18FF8CA9x     Rx d 8 00 00 00 00 00 00 00 00 
13.1481      1          18FFF797x     Rx d 8 57 52 00 00 54 2D 00 00 
13.1499      1          18FF90AFx     Rx d 8 00 00 00 00 50 C3 1B 00 
13.1512      1          18FF8DACx     Rx d 8 10 00 00 00 00 00 04 EB 
13.1518      1          180B10FFx     Rx d 8 02 00 00 00 00 00 20 DD 
13.1524      1          18F0010Bx     Rx d 8 00 00 00 00 00 00 00 00 
13.153       1          18FF65ACx     Rx d 8 00 00 00 00 00 00 00 FF 
13.1543      1          18FF2697x     Rx d 8 EE 3C 01 01 02 20 05 00 
13.1549      1          18FEA297x     Rx d 8 0B 0A 00 10 00 00 00 40 
13.1543      2          10FFE597x     Rx d 8 1E 39 EE EE 88 13 98 3A 
13.1549      2          18FFE699x     Rx d 8 98 3A 88 13 1E 00 57 35 
13.1643      2          10FFE597x     Rx d 8 1E 49 EE EE 88 13 98 3A 
13.1554      1          18FA0117x     Rx d 8 10 C4 01 04 00 00 00 00 
13.156       1          18FF7097x     Rx d 8 00 00 00 00 00 00 00 D0 
13.1581      1          18FF2797x     Rx d 8 0D 0A 3E 07 00 00 00 00 
13.1601      1          0CFF83AAx     Rx d 8 FF 80 81 3B 75 C7 00 56 
13.1643      1          18FF2697x     Rx d 8 EE 3C 01 01 02 20 05 00 
13.1649      1          0CFE6CEEx     Rx d 8 FF FF FF FF FF FF 00 00 
13.1655      1          181E0246x     Rx d 8 00 00 54 00 00 00 00 00 
13.166       1          18FE6CEEx     Rx d 8 FF FF FF FF FF FF 00 00 
13.1666      1          18FF65BBx     Rx d 8 00 A0 57 18 00 02 00 00 
13.1672      1          0CFE6C17x     Rx d 8 FF FF FF FF FF FF 00 00 
13.1649      2          18FFE699x     Rx d 8 98 3A 88 13 1E 00 57 45 
13.1743      2          10FFE597x     Rx d 8 1E 59 EE EE 88 13 98 3A 
13.1678      1          18FF9197x     Rx d 8 00 01 00 00 7F 7D 00 00 
13.1701      1          18FF90AFx     Rx d 8 00 00 00 00 50 C3 1B 00 
13.1714      1          180B10FFx     Rx d 8 02 00 00 00 00 00 30 CD 
13.172       1          18F0010Bx     Rx d 8 00 00 00 00 00 00 00 00 
13.1743      1          18FF2697x     Rx d 8 EE 3C 01 01 02 20 05 00 
13.1749      1          18FF7097x     Rx d 8 00 00 00 00 00 00 00 E0 
13.1749      2          18FFE699x     Rx d 8 98 3A 88 13 1E 00 57 55 
13.1843      2          10FFE597x     Rx d 8 1E 69 EE EE 88 13 98 3A 
13.1755      1          18FEF100x     Rx d 8 F7 00 00 0F FF FF FF FF 
13.176       1          18FEF117x     Rx d 8 04 00 00 00 00 00 00 00 
13.1801      1          0CFF83AAx     Rx d 8 FF 7F 80 D2 75 C7 00 66 
13.1843      1          0CF00C03x     Rx d 8 00 00 00 00 00 00 00 00 
13.1849      1          18FA0517x     Rx d 8 01 10 04 03 41 05 DF 3D 
13.1854      1          18FF2697x     Rx d 8 EE 3C 01 01 02 20 05 00 
13.1849      2          18FF8CA9x     Rx d 8 00 00 00 00 00 00 00 00 
13.1855      2          18FFE398x     Rx d 8 0F 00 A4 14 00 00 1F 60 
13.186       2          18FFE699x     Rx d 8 98 3A 88 13 1E 00 57 65 
13.1889      2          10FFF5F4x     Rx d 8 05 08 49 82 00 00 00 00 
13.186       1          18FF9197x     Rx d 8 00 01 00 00 7F 7D 00 00 
13.1901      1          18FF90AFx     Rx d 8 00 00 00 00 50 C3 1B 00 
13.1914      1          180B10FFx     Rx d 8 02 00 00 00 00 00 40 BD 
13.192       1          180B08FFx     Rx d 8 00 00 00 00 00 00 00 00 
13.1925      1          180B12FFx     Rx d 8 B8 20 16 66 90 16 04 01 
13.1931      1          18FEBF0Bx     Rx d 8 00 00 7D 7D 7D 7D 00 00 
13.1937      1          180B11FFx     Rx d 8 00 00 00 00 00 00 00 00 
13.1943      1          18F0010Bx     Rx d 8 00 00 00 00 00 00 00 00 
13.1948      1          18FA0517x     Rx d 8 02 CF 0F CD 0C F3 CF 7B 
13.1954      1          18FE812Bx     Rx d 8 01 00 00 00 00 00 00 00 
13.1943      2          10FFE597x     Rx d 8 1E 79 EE EE 88 13 98 3A 
13.1949      2          10FFE497x     Rx d 8 8F 00 00 00 00 00 00 9D 
13.1954      2          18FFE699x     Rx d 8 98 3A 88 13 1E 00 57 75 
13.2043      2          10FFE597x     Rx d 8 1E 89 EE EE 88 13 98 3A 
13.196       1          18FE812Bx     Rx d 8 01 00 00 00 00 00 00 00 
13.1966      1          18FF2697x     Rx d 8 EE 3C 01 01 02 20 05 00 
13.1971      1          18FF502Bx     Rx d 8 00 FF FF FF FF FF FF FA 
13.1977      1          18FF7097x     Rx d 8 00 00 00 00 00 00 00 F0 
13.1983      1          18FF8CA9x     Rx d 8 00 00 00 00 00 00 00 00 
13.2001      1          0CFF83AAx     Rx d 8 FF 7F 81 7A 75 C7 00 76 
13.2043      1          18FF2697x     Rx d 8 EE 3C 01 01 02 20 05 00 
13.2049      1          18FA0117x     Rx d 8 10 C4 01 04 00 00 00 00 
13.2049      2          18FFE699x     Rx d 8 98 3A 88 13 1E 00 57 85 
13.2143      2          10FFE597x     Rx d 8 1E 99 EE EE 88 13 98 3A 
13.2054      1          18FA0517x     Rx d 8 03 FF FF FF FF FF FF FD 
13.206       1          18FF6597x     Rx d 8 01 00 00 00 00 00 00 00 
13.2066      1          18FF9197x     Rx d 8 00 01 00 00 7F 7D 00 00 
13.2102      1          18FF90AFx     Rx d 8 00 00 00 00 50 C3 1B 00 
13.2114      1          180B10FFx     Rx d 8 02 00 00 00 00 00 50 AD 
13.212       1          18F0010Bx     Rx d 8 00 00 00 00 00 00 00 00 
13.2143      1          18FF3397x     Rx d 8 48 01 00 00 00 00 00 FF 
13.2149      2          18F00A9Ex     Rx d 8 82 4E 26 02 54 28 00 B1 
13.2154      2          18FFE699x     Rx d 8 98 3A 88 13 1E 00 57 95 
13.2243      2          10FFE597x     Rx d 8 1E A9 EE EE 88 13 98 3A 
13.2249      2          18F0089Ex     Rx d 8 83 00 7D 00 54 56 00 00 
13.2149      1          18FFEB97x     Rx d 8 98 3A 98 3A 00 00 00 00 
13.2155      1          0CFE6CEEx     Rx d 8 FF FF FF FF FF FF 00 00 
13.216       1          18FF2697x     Rx d 8 EE 3C 01 01 02 20 05 00 
13.2166      1          18FE6CEEx     Rx d 8 FF FF FF FF FF FF 00 00 
13.2172      1          18FF7097x     Rx d 8 00 00 00 00 00 00 00 00 
13.2178      1          0CFE6C17x     Rx d 8 FF FF FF FF FF FF 00 00 
13.2201      1          0CFF83AAx     Rx d 8 FF 7F 82 76 75 C7 00 86 
13.2243      1          18FF2697x     Rx d 8 EE 3C 01 01 02 20 05 00 
13.2249      1          181E5546x     Rx d 8 E9 FF FF FF FF FF FF FF 
13.2255      1          18FEF117x     Rx d 8 04 00 00 00 00 00 00 00 
13.2254      2          18FFE699x     Rx d 8 98 3A 88 13 1E 00 57 A5 
13.2343      2          10FFE597x     Rx d 8 1E B9 EE EE 88 13 98 3A 
13.226       1          18FFEA97x     Rx d 8 52 09 01 01 00 00 00 00 
13.2266      1          18FF9197x     Rx d 8 00 01 00 00 7F 7D 00 00 
13.2304      1          18FF90AFx     Rx d 8 00 00 00 00 50 C3 1B 00 
13.2314      1          180B10FFx     Rx d 8 02 00 00 00 00 00 60 9D 
13.232       1          18F0010Bx     Rx d 8 00 00 00 00 00 00 00 00 
13.2343      1          18FF2697x     Rx d 8 EE 3C 01 01 02 20 05 00 
13.2349      1          18FF0297x     Rx d 8 20 00 D0 02 03 00 00 00 
13.2355      1          18FF2997x     Rx d 8 00 26 00 13 00 23 00 00 
13.2349      2          18FF3197x     Rx d 8 00 00 00 00 00 00 00 00 
13.2355      2          18FF8CA9x     Rx d 8 00 00 00 00 00 00 00 00 
13.2361      2          18FFE398x     Rx d 8 0F 00 A4 14 00 00 1F 70 
13.2366      2          18FFE699x     Rx d 8 98 3A 88 13 1E 00 57 B5 
13.2375      2          10FFF5F4x     Rx d 8 05 08 49 82 00 00 00 00 
13.2443      2          10FFE597x     Rx d 8 1E C9 EE EE 88 13 98 3A 
13.236       1          18FF7097x     Rx d 8 00 00 00 00 00 00 00 10 
13.2401      1          0CFF83AAx     Rx d 8 FF 7F 80 AF 75 C7 00 96 
13.2414      1          18FEBF0Bx     Rx d 8 00 00 7D 7D 7D 7D 00 00 
13.2443      1          18FF2697x     Rx d 8 EE 3C 01 01 02 20 05 00 
13.2449      1          18FA0617x     Rx d 8 04 10 FF FF FF FF FF FF 
13.2455      1          18FF02BBx     Rx d 8 73 04 08 00 00 00 00 00 
13.2449      2          18FF3097x     Rx d 8 DD 00 08 00 00 00 00 00 
13.2455      2          10FFE497x     Rx d 8 8F 00 00 00 00 00 00 A2 
13.246       2          18FFE699x     Rx d 8 98 3A 88 13 1E 00 57 C5 
13.2543      2          10FFE597x     Rx d 8 1E D9 EE EE 88 13 98 3A 
13.2549      2          18FFE699x     Rx d 8 98 3A 88 13 1E 00 57 D5 
13.246       1          18FF9197x     Rx d 8 00 01 00 00 7F 7D 00 00 
13.2466      1          18FF8CA9x     Rx d 8 00 00 00 00 00 00 00 00 
13.2506      1          18FF90AFx     Rx d 8 00 00 00 00 50 C3 1B 00 
13.2512      1          18FF8DACx     Rx d 8 10 00 00 00 00 00 05 EA 
13.2518      1          180B10FFx     Rx d 8 02 00 00 00 00 00 70 8D 
13.2524      1          18F0010Bx     Rx d 8 00 00 00 00 00 00 00 00 
13.2543      1          18FF2697x     Rx d 8 EE 3C 01 01 02 20 05 00 
13.2549      1          18FA0117x     Rx d 8 10 C4 01 04 00 00 00 00 
13.2554      1          18FEA297x     Rx d 8 0B 0A 00 10 00 00 00 40 
13.256       1          18FF7097x     Rx d 8 00 00 00 00 00 00 00 20 
13.2643      2          10FFE597x     Rx d 8 1E E9 EE EE 88 13 98 3A 
13.2649      2          18FFE699x     Rx d 8 98 3A 88 13 1E 00 57 E5 
13.2601      1          0CFF83AAx     Rx d 8 FF 80 81 1F 75 C7 00 A6 
13.2643      1          18FF2697x     Rx d 8 EE 3C 01 01 02 20 05 00 
13.2649      1          181E0246x     Rx d 8 00 00 54 00 00 00 00 00 
13.2655      1          0CFE6CEEx     Rx d 8 FF FF FF FF FF FF 00 00 
13.2743      2          10FFE597x     Rx d 8 1E 09 EE EE 88 13 98 3A 
13.2749      2          18FFE699x     Rx d 8 98 3A 88 13 1E 00 57 F5 
13.266       1          18FF65BBx     Rx d 8 00 A0 57 18 00 02 00 00 
13.2666      1          18FE6CEEx     Rx d 8 FF FF FF FF FF FF 00 00 
13.2672      1          18FF9197x     Rx d 8 00 01 00 00 7F 7D 00 00 
13.2678      1          0CFE6C17x     Rx d 8 FF FF FF FF FF FF 00 00 
13.2708      1          18FF90AFx     Rx d 8 00 00 00 00 50 C3 1B 00 
13.2714      1          180B10FFx     Rx d 8 02 00 00 00 00 00 80 7D 
13.272       1          18F0010Bx     Rx d 8 00 00 00 00 00 00 00 00 
13.2743      1          18FF2697x     Rx d 8 EE 3C 01 01 02 20 05 00 
13.2749      1          18FEF100x     Rx d 8 F7 00 00 0F FF FF FF FF 
13.2843      2          10FFE597x     Rx d 8 1E 19 EE EE 88 13 98 3A 
13.2849      2          18FF8CA9x     Rx d 8 00 00 00 00 00 00 00 00 
13.2755      1          18FEF117x     Rx d 8 04 00 00 00 00 00 00 00 
13.276       1          18FF7097x     Rx d 8 00 00 00 00 00 00 00 30 
13.2801      1          0CFF83AAx     Rx d 8 FF 7F 81 8F 75 C7 00 B6 
13.2843      1          0CF00C03x     Rx d 8 00 00 00 00 00 00 00 00 
13.2849      1          18FF2697x     Rx d 8 EE 3C 01 01 02 20 05 00 
13.2855      1          18FF9197x     Rx d 8 00 01 00 00 7F 7D 00 00 
13.2855      2          18FFE398x     Rx d 8 0F 00 A4 14 00 00 1F 80 
13.286       2          18FFE699x     Rx d 8 98 3A 88 13 1E 00 57 05 
13.2889      2          10FFECF4x     Rx d 8 F1 B4 79 97 8E B2 D1 83 
13.2895      2          10FFF5F4x     Rx d 8 05 08 49 82 00 00 00 00 
13.291       1          18FF90AFx     Rx d 8 00 00 00 00 50 C3 1B 00 
13.2916      1          180B10FFx     Rx d 8 02 00 00 00 00 00 90 6D 
13.2921      1          180B12FFx     Rx d 8 B8 20 16 66 90 16 05 00 
13.2927      1          18FEBF0Bx     Rx d 8 00 00 7D 7D 7D 7D 00 00 
13.2933      1          180B11FFx     Rx d 8 00 00 00 00 00 00 00 00 
13.2939      1          18F0010Bx     Rx d 8 00 00 00 00 00 00 00 00 
13.2944      1          18FF2697x     Rx d 8 EE 3C 01 01 02 20 05 00 
13.2943      2          10FFE597x     Rx d 8 1E 29 EE EE 88 13 98 3A 
13.2949      2          10F00697x     Rx d 8 66 3C 00 56 00 00 00 05 
13.2954      2          10FFE497x     Rx d 8 8F 00 00 00 00 00 00 A7 
13.296       2          18FFE699x     Rx d 8 98 3A 88 13 1E 00 57 15 
13.3043      2          10FFE597x     Rx d 8 1E 39 EE EE 88 13 98 3A 
13.295       1          18FF7097x     Rx d 8 00 00 00 00 00 00 00 40 
13.2956      1          18FF8CA9x     Rx d 8 00 00 00 00 00 00 00 00 
13.3001      1          0CFF83AAx     Rx d 8 FF 7F 80 9A 75 C7 00 C6 
13.3043      1          18FF2697x     Rx d 8 EE 3C 01 01 02 20 05 00 
13.3049      1          18FA0117x     Rx d 8 10 C4 01 04 00 00 00 00 
13.3049      2          18FFE699x     Rx d 8 98 3A 88 13 1E 00 57 25 
13.3143      2          10FFE597x     Rx d 8 1E 49 EE EE 88 13 98 3A 
13.3149      2          18FFE699x     Rx d 8 98 3A 88 13 1E 00 57 35 
13.3055      1          18FF6597x     Rx d 8 01 00 00 00 00 00 00 00 
13.306       1          18FF9197x     Rx d 8 00 01 00 00 7F 7D 00 00 
13.3114      1          180B10FFx     Rx d 8 02 00 00 00 00 00 A0 5D 
13.312       1          18F0010Bx     Rx d 8 00 00 00 00 00 00 00 00 
13.3126      1          18FF90AFx     Rx d 8 00 00 00 00 50 C3 1B 00 
13.3143      1          18FF3397x     Rx d 8 49 00 00 01 00 00 00 FF 
13.3149      1          18FFEB97x     Rx d 8 98 3A 98 3A 00 00 00 00 
13.3154      1          18FF2697x     Rx d 8 EE 3C 01 01 02 20 05 00 
13.3243      2          10FFE597x     Rx d 8 1E 59 EE EE 88 13 98 3A 
13.316       1          18FF7097x     Rx d 8 00 00 00 00 00 00 00 50 
13.3201      1          0CFF83AAx     Rx d 8 FF 80 80 B6 75 C7 00 D6 
13.3243      1          18FF2697x     Rx d 8 EE 3C 01 01 02 20 05 00 
13.3249      1          181E5546x     Rx d 8 E9 FF FF FF FF FF FF FF 
13.3255      1          18FEF117x     Rx d 8 04 00 00 00 00 00 00 00 
13.3249      2          18F0089Ex     Rx d 8 84 00 7D 00 54 56 00 00 
13.3254      2          18FFE699x     Rx d 8 98 3A 88 13 1E 00 57 45 
13.326       1          18FFEA97x     Rx d 8 52 09 01 01 00 00 00 00 
13.3266      1          18FF9197x     Rx d 8 00 01 00 00 7F 7D 00 00 
13.3314      1          180B10FFx     Rx d 8 02 00 00 00 00 00 B0 4D 
13.332       1          18F0010Bx     Rx d 8 00 00 00 00 00 00 00 00 
13.3327      1          0CFE6CEEx     Rx d 8 FF FF FF FF FF FF 00 00 
13.3333      1          18FF90AFx     Rx d 8 00 00 00 00 50 C3 1B 00 
13.3339      1          18FE6CEEx     Rx d 8 FF FF FF FF FF FF 00 00 
13.3345      1          18FF0297x     Rx d 8 20 00 B0 02 02 00 00 00 
13.335       1          0CFE6C17x     Rx d 8 FF FF FF FF FF FF 00 00 
13.3343      2          10FFE597x     Rx d 8 1E 69 EE EE 88 13 98 3A 
13.3349      2          18FF3197x     Rx d 8 00 00 00 00 00 00 00 00 
13.3355      2          18FF8CA9x     Rx d 8 00 00 00 00 00 00 00 00 
13.3361      2          18FFE398x     Rx d 8 0F 00 A4 14 00 00 1F 90 
13.3366      2          18FFE699x     Rx d 8 98 3A 88 13 1F 00 57 55 
13.3375      2          10FFF5F4x     Rx d 8 05 08 49 82 00 00 00 00 
13.3443      2          10FFE597x     Rx d 8 1E 79 EE EE 88 13 98 3A 
13.3356      1          18FF2997x     Rx d 8 00 26 00 13 00 23 00 00 
13.3362      1          18FF2697x     Rx d 8 EE 3C 01 01 02 20 05 00 
13.3368      1          18FF7097x     Rx d 8 00 00 00 00 00 00 00 60 
13.3401      1          0CFF83AAx     Rx d 8 FF 80 81 57 75 C7 00 E6 
13.3414      1          18FEBF0Bx     Rx d 8 00 00 7D 7D 7D 7D 00 00 
13.342       1          18FEE017x     Rx d 8 FF FF FF FF 10 01 00 00 
13.3426      1          18FEE0EEx     Rx d 8 10 01 00 00 10 01 00 00 
13.3442      1          18FEF433x     Rx d 8 00 B6 26 C0 C0 F5 FF 5E 
13.3448      1          18FF02BBx     Rx d 8 73 04 08 00 00 00 00 00 
13.3453      1          18FF2697x     Rx d 8 EE 3C 01 01 02 20 05 00 
13.3449      2          18FF3097x     Rx d 8 DD 00 08 00 00 00 00 00 
13.3455      2          10FFE497x     Rx d 8 8F 00 00 00 00 00 00 AC 
13.346       2          18FFE699x     Rx d 8 98 3A 88 13 1F 00 57 65 
13.3543      2          10FFE597x     Rx d 8 1E 89 EE EE 88 13 98 3A 
13.3459      1          18FF9197x     Rx d 8 00 01 00 00 7F 7D 00 00 
13.3465      1          18FF8CA9x     Rx d 8 00 00 00 00 00 00 00 00 
13.3512      1          18FF8DACx     Rx d 8 10 00 00 00 00 00 06 E9 
13.3518      1          180B10FFx     Rx d 8 02 00 00 00 00 00 C0 3D 
13.3524      1          18F0010Bx     Rx d 8 00 00 00 00 00 00 00 00 
13.3536      1          18FF90AFx     Rx d 8 00 00 00 00 50 C3 1B 00 
13.3543      1          18FF2697x     Rx d 8 EE 3C 01 01 02 20 05 00 
13.3549      1          18FA0117x     Rx d 8 10 C4 01 04 00 00 00 00 
13.3554      1          18FEA297x     Rx d 8 0B 0A 00 10 00 00 00 40 
13.3549      2          18FFE699x     Rx d 8 98 3A 88 13 1E 00 57 75 
13.3643      2          10FFE597x     Rx d 8 1E 99 EE EE 88 13 98 3A 
13.3649      2          18FFE699x     Rx d 8 98 3A 88 13 1F 00 57 85 
13.356       1          18FF7097x     Rx d 8 00 00 00 00 00 00 00 70 
13.3601      1          0CFF83AAx     Rx d 8 FF 7F 81 5E 75 C7 00 F6 
13.3643      1          18FF2697x     Rx d 8 EE 3C 01 01 02 20 05 00 
13.3649      1          181E0246x     Rx d 8 00 00 54 00 00 00 00 00 
13.3655      1          18FA1017x     Rx d 8 26 02 FF FF FF FF FF FF 
13.366       1          18FFBB17x     Rx d 8 00 00 01 00 00 00 00 00 
13.3666      1          18FF65BBx     Rx d 8 00 A0 57 18 00 02 00 00 
13.3672      1          18FF9197x     Rx d 8 00 01 00 00 7F 7D 00 00 
13.3743      2          10FFE597x     Rx d 8 1E A9 EE EE 88 13 98 3A 
13.3714      1          180B10FFx     Rx d 8 02 00 00 00 00 00 D0 2D 
13.372       1          18F0010Bx     Rx d 8 00 00 00 00 00 00 00 00 
13.3737      1          18FF90AFx     Rx d 8 00 00 00 00 50 C3 1B 00 
13.3743      1          18FEF117x     Rx d 8 04 00 00 00 00 00 00 00 
13.3748      1          18FA2017x     Rx d 8 FF 00 FF FF FF FF FF FF 
13.3749      2          18FFE699x     Rx d 8 98 3A 88 13 1F 00 57 95 
13.3754      1          18FEF100x     Rx d 8 F7 00 00 0F FF FF FF FF 
13.376       1          18FF2697x     Rx d 8 EE 3C 01 01 02 20 05 00 
13.3766      1          18FF7097x     Rx d 8 00 00 00 00 00 00 00 80 
