date Fri Apr 19 11:22:10 AM 2024
base hex  timestamps absolute 
internal events logged 
// version 7.2.0 
Begin TriggerblockFri Apr 19 11:22:10 AM 2024
0.000000 Start of measurement
3538.0948    2          18FFE699x     Rx d 8 64 3D 01 14 0C 01 57 A5 
3538.0953    2          18FFE899x     Rx d 8 00 00 20 20 0D 14 00 15 
3538.0959    2          10FFE597x     Rx d 8 17 A9 FA C8 08 14 98 3A 
3538.0965    2          10FFE497x     Rx d 8 8F 00 00 00 02 00 00 4A 
3538.1048    2          18FFE699x     Rx d 8 65 3D 08 14 0F 01 57 B5 
3538.1053    2          18FFE899x     Rx d 8 00 00 1F 20 0D 14 00 15 
3538.1059    2          10FFE597x     Rx d 8 17 B9 FA C8 08 14 98 3A 
3538.1064    2          10F01797x     Rx d 8 0B 64 3D 01 14 00 00 00 
3538.1148    2          18FFE699x     Rx d 8 63 3D 07 14 0C 01 57 C5 
3538.1153    2          18FFE899x     Rx d 8 00 00 1B 20 0D 14 00 15 
3538.1159    2          10FFE597x     Rx d 8 17 C9 FA C8 08 14 98 3A 
3538.1185    2          18FFE398x     Rx d 8 0F 00 22 94 0C 00 5F 90 
3538.1194    2          18FFC698x     Rx d 8 00 00 00 00 00 00 00 00 
3538.0915    1          18F0090Bx     Rx d 8 FF FF FF FF FF FF FF 7E 
3538.0956    1          18EBFF00x     Rx d 8 02 FF FF FF FF FF FF FF 
3538.0961    1          18FEF117x     Rx d 8 F3 3F 15 CF FF FF FF FF 
3538.0967    1          0CEFEF0Bx     Rx d 8 CC FA 7D FF FF FF FF 20 
3538.0973    1          18FF6597x     Rx d 8 01 00 00 00 00 00 00 00 
3538.0979    1          0CF00203x     Rx d 8 01 58 16 00 00 00 00 00 
3538.0984    1          0CF00400x     Rx d 8 11 80 81 58 16 00 00 81 
3538.099     1          18FF20EFx     Rx d 8 F1 81 2C 0B 7D EF 00 4F 
3538.0996    1          0C040B97x     Rx d 8 7E 7D CC 00 FF FF FF 25 
3538.1002    1          18FF8CA9x     Rx d 8 00 00 00 00 00 00 00 00 
3538.1007    1          18F0090Bx     Rx d 8 FF FF FF FF FF FF FF 7E 
3538.1025    1          08FE6E0Bx     Rx d 8 1C 15 1A 15 16 15 2A 15 
3538.1031    1          0CFF83AAx     Rx d 8 FF 6C 14 75 74 B6 00 94 
3538.1056    1          0CF00203x     Rx d 8 01 60 16 00 00 00 00 00 
3538.1061    1          0CFE6CEEx     Rx d 8 FF FF FF FF FF FF 3F 15 
3538.1067    1          18FF65ACx     Rx d 8 69 00 59 00 00 00 FF FF 
3538.1073    1          0CFE6C17x     Rx d 8 FF FF FF FF FF FF 3F 15 
3538.1079    1          18FA0117x     Rx d 8 10 00 F0 C3 0F FF FF FF 
3538.1084    1          18FFEB97x     Rx d 8 64 3D 64 3D 00 00 00 00 
3538.109     1          0CF00400x     Rx d 8 11 80 81 60 16 00 00 81 
3538.1095    1          18FF20EFx     Rx d 8 F1 81 30 0B 7D EF 00 4F 
3538.1101    1          18FF7097x     Rx d 8 00 7D 00 0A E9 2D 14 B0 
3538.1107    1          0CF00300x     Rx d 8 00 07 00 00 00 00 00 00 
3538.1113    1          0CFF82BCx     Rx d 8 74 B6 C0 80 1E FF FF 8F 
3538.1118    1          0CFF84A0x     Rx d 8 C0 00 C3 00 00 7E 7D 69 
3538.1124    1          18F0090Bx     Rx d 8 FF FF FF FF FF FF FF 7E 
3538.113     1          18FEBF0Bx     Rx d 8 0D 15 7E 7C 7D 7E FF FF 
3538.1136    1          18FFC7BCx     Rx d 8 00 C9 01 F6 00 28 28 00 
3538.1141    1          18FFC8A0x     Rx d 8 01 10 FF FF 00 FF FF FF 
3538.1147    1          18FFC9A0x     Rx d 8 C3 FB C8 FF FF FF FF FF 
3538.1156    1          0CF00203x     Rx d 8 01 68 16 00 00 00 00 00 
3538.1162    1          18FFEA97x     Rx d 8 13 08 01 01 00 00 00 00 
3538.1167    1          0CF00400x     Rx d 8 11 80 81 68 16 00 00 81 
3538.1173    1          18F001ACx     Rx d 8 FF FF FF FF FF FF FF F3 
3538.1179    1          18FF20EFx     Rx d 8 F1 81 34 0B 7D EF 00 4F 
3538.1184    1          0C040B97x     Rx d 8 7E 7D CC 00 FF FF FF 36 
3538.119     1          18FF8DACx     Rx d 8 00 0A 4A 00 00 00 00 00 
3538.1196    1          18FEF121x     Rx d 8 FF FF FF FF 00 FF FF FF 
3538.1202    1          18FFA091x     Rx d 8 A0 F0 30 FC FF FF FF 46 
3538.1207    1          18F0090Bx     Rx d 8 FF FF FF FF FF FF FF 7E 
3538.1226    1          08FE6E0Bx     Rx d 8 12 15 08 15 10 15 20 15 
3538.1231    1          0CFF83AAx     Rx d 8 FF 6C 25 75 74 B6 00 A4 
3538.1204    2          18FFF298x     Rx d 8 22 14 16 14 00 01 01 DB 
3538.1213    2          18F0089Ex     Rx d 8 81 41 88 07 4B 64 00 60 
3538.1219    2          10FFF39Fx     Rx d 8 02 50 C3 03 02 00 00 AE 
3538.1231    2          10FFECF4x     Rx d 8 2C 34 E2 7D C6 B3 DD A3 
3538.1237    2          18FFF1F4x     Rx d 8 DA 0B 98 17 9F 13 9C 02 
3538.1243    2          10FFF5F4x     Rx d 8 05 08 7D 8B 00 00 00 00 
3538.1249    2          18FFE699x     Rx d 8 64 3D 06 14 0C 01 57 D5 
3538.1254    2          18FFE899x     Rx d 8 00 00 1C 20 0D 14 00 15 
3538.126     2          10FFE597x     Rx d 8 17 D9 FA C8 08 14 98 3A 
3538.1265    2          10F01797x     Rx d 8 0B 63 3D 07 14 00 00 00 
3538.1326    2          18FFEDF4x     Rx d 8 F2 0C EC 0C 80 02 62 02 
3538.1331    2          10FFF6F4x     Rx d 8 40 00 01 00 00 00 00 33 
3538.1349    2          18FFE699x     Rx d 8 65 3D 08 14 0E 01 57 E5 
3538.1354    2          18FFE899x     Rx d 8 00 00 20 20 0D 14 00 15 
3538.136     2          10FFE597x     Rx d 8 17 E9 FA C8 08 14 98 3A 
3538.1256    1          0CF00203x     Rx d 8 01 58 16 00 00 00 00 00 
3538.1261    1          18FF2997x     Rx d 8 02 2E 03 17 00 E3 00 00 
3538.1267    1          0CF00400x     Rx d 8 11 80 81 58 16 00 00 81 
3538.1273    1          18FF20EFx     Rx d 8 F1 81 2C 0B 7D EF 00 4F 
3538.1278    1          18FF7097x     Rx d 8 00 7D 00 0B E9 2E 14 D0 
3538.1304    1          0CFF82BCx     Rx d 8 74 B6 C0 80 1E FF FF 9F 
3538.131     1          0CFF84A0x     Rx d 8 C0 00 C3 00 00 7E 7D 7A 
3538.1315    1          18F0090Bx     Rx d 8 FF FF FF FF FF FF FF 7E 
3538.1356    1          0CF00203x     Rx d 8 01 60 16 00 00 00 00 00 
3538.1361    1          0CF00400x     Rx d 8 11 80 81 60 16 00 00 81 
3538.1367    1          18FF20EFx     Rx d 8 F1 81 30 0B 7D EF 00 4F 
3538.1373    1          0C040B97x     Rx d 8 7E 7D CC 00 FF FF FF 47 
3538.1406    1          18F0090Bx     Rx d 8 FF FF FF FF FF FF FF 7E 
3538.1425    2          18FFEEF4x     Rx d 8 B5 0C EB 09 62 02 00 00 
3538.1431    2          18FF04F4x     Rx d 8 00 00 00 00 00 00 00 00 
3538.1449    2          18FFE699x     Rx d 8 65 3D 0F 14 0E 01 57 F5 
3538.1454    2          18FFE899x     Rx d 8 00 00 1E 20 0E 14 00 15 
3538.146     2          18FF3197x     Rx d 8 80 02 80 02 F3 01 F3 01 
3538.1465    2          10FFE597x     Rx d 8 17 F9 FA C8 08 14 98 3A 
3538.1471    2          10F01797x     Rx d 8 0B 65 3D 08 14 00 00 00 
3538.1477    2          10FFE497x     Rx d 8 8F 00 00 00 02 00 00 4F 
3538.1426    1          08FE6E0Bx     Rx d 8 04 15 16 15 14 15 2A 15 
3538.1431    1          0CFF83AAx     Rx d 8 FF 6B 30 75 74 B6 00 B4 
3538.1456    1          0CF00203x     Rx d 8 01 68 16 00 00 00 00 00 
3538.1462    1          18FEA297x     Rx d 8 00 24 2C 03 F0 0A 00 28 
3538.1467    1          0CF00400x     Rx d 8 11 80 81 68 16 00 00 81 
3538.1473    1          18FF20EFx     Rx d 8 F1 81 34 0B 7D EF 00 4F 
3538.1478    1          18FF7097x     Rx d 8 00 7D 00 0B E9 2F 14 F0 
3538.1484    1          18FF8CA9x     Rx d 8 00 00 00 00 00 00 00 00 
3538.1504    1          0CFF82BCx     Rx d 8 74 B6 C0 80 1E FF FF AF 
3538.151     1          0CFF84A0x     Rx d 8 C0 00 C3 00 00 7E 7D 8B 
3538.1515    1          18F0090Bx     Rx d 8 FF FF FF FF FF FF FF 7E 
3538.1556    1          0CFE6CEEx     Rx d 8 FF FF FF FF FF FF 3F 15 
3538.1561    1          18F00503x     Rx d 8 7E E8 03 7E 00 00 00 00 
3538.1567    1          0CF00203x     Rx d 8 01 68 16 00 00 00 00 00 
3538.1573    1          0CF00400x     Rx d 8 11 80 81 68 16 00 00 81 
3538.1579    1          0CFE6C17x     Rx d 8 FF FF FF FF FF FF 3F 15 
3538.1584    1          18FA0117x     Rx d 8 10 00 F0 C3 0F FF FF FF 
3538.1525    2          18F113F4x     Rx d 8 2B F2 0C 4C EC 0C 01 02 
3538.1549    2          18FFE699x     Rx d 8 64 3D 05 14 0A 01 57 05 
3538.1554    2          18FFE899x     Rx d 8 00 00 1B 20 0D 14 00 15 
3538.156     2          18FF3097x     Rx d 8 D1 00 10 00 00 00 00 00 
3538.1566    2          10FFE597x     Rx d 8 17 09 FA C8 08 14 98 3A 
3538.1571    2          18FE8097x     Rx d 8 03 00 01 00 00 00 00 00 
3538.1625    2          18F114F4x     Rx d 8 06 40 0D 3D 01 01 FF FF 
3538.1649    2          18FFE699x     Rx d 8 65 3D 02 14 0C 01 57 15 
3538.1654    2          18FFE899x     Rx d 8 00 00 1F 20 0D 14 00 15 
3538.166     2          10FFE597x     Rx d 8 17 19 FA C8 08 14 98 3A 
3538.1665    2          10F01797x     Rx d 8 0B 64 3D 05 14 00 00 00 
3538.1691    2          18FFE398x     Rx d 8 0F 00 1B 94 0C 00 5F A0 
3538.17      2          18FFC698x     Rx d 8 1E 00 2E 00 00 00 00 00 
3538.159     1          18FF20EFx     Rx d 8 F1 81 34 0B 7D EF 00 4F 
3538.1596    1          0C040B97x     Rx d 8 7E 7D CC 00 FF FF FF 58 
3538.1601    1          0CF00300x     Rx d 8 00 07 00 00 00 00 00 00 
3538.1607    1          0C00000Bx     Rx d 8 30 FF FF FA FF FF FF 41 
3538.1613    1          18F0090Bx     Rx d 8 FF FF FF FF FF FF FF 7E 
3538.1619    1          18FFC7BCx     Rx d 8 00 C9 01 F6 00 28 28 00 
3538.1626    1          08FE6E0Bx     Rx d 8 1E 15 22 15 1A 15 28 15 
3538.1632    1          18FEBF0Bx     Rx d 8 20 15 7D 7D 7D 7D FF FF 
3538.1637    1          0CFF83AAx     Rx d 8 FF 6B 3D 75 74 B6 00 C4 
3538.1646    1          18F0010Bx     Rx d 8 00 00 C3 FF FF 01 FF F3 
3538.1656    1          0CF00203x     Rx d 8 01 60 16 00 00 00 00 00 
3538.1662    1          18FEF100x     Rx d 8 00 30 14 00 00 00 00 00 
3538.1667    1          0CF00400x     Rx d 8 11 80 81 60 16 00 00 81 
3538.1673    1          18FE4F0Bx     Rx d 8 FF FF FF FF FF FF FF FF 
3538.1679    1          18FF20EFx     Rx d 8 F1 81 30 0B 7D EF 00 4F 
3538.1684    1          18FF7097x     Rx d 8 00 7D 00 0B E9 30 14 10 
3538.169     1          18FEAD0Bx     Rx d 8 00 00 00 00 FE FE FF FF 
3538.1704    1          0CFF82BCx     Rx d 8 74 B6 C0 80 1E FF FF BF 
3538.171     1          0CFF84A0x     Rx d 8 C0 00 C3 00 00 7E 7D 9C 
3538.1716    1          18F0090Bx     Rx d 8 FF FF FF FF FF FF FF 7E 
3538.1756    1          0CF00203x     Rx d 8 01 68 16 00 00 00 00 00 
3538.1762    1          18FE4A03x     Rx d 8 00 01 00 00 00 00 00 00 
3538.1767    1          0CF00400x     Rx d 8 11 80 81 68 16 00 00 81 
3538.1773    1          18FDC40Bx     Rx d 8 00 00 64 F3 FF FF FF FF 
3538.1779    1          18FF20EFx     Rx d 8 F1 81 34 0B 7D EF 00 4F 
3538.1784    1          0C040B97x     Rx d 8 7E 7D CC 00 FF FF FF 69 
3538.1806    1          18F0090Bx     Rx d 8 FF FF FF FF FF FF FF 7E 
3538.1826    1          08FE6E0Bx     Rx d 8 26 15 18 15 26 15 18 15 
3538.171     2          18FFF298x     Rx d 8 1B 14 16 14 00 01 01 DC 
3538.1726    2          18FFF0F4x     Rx d 8 00 00 00 00 00 00 00 00 
3538.1732    2          10FFF5F4x     Rx d 8 05 08 7D 8B 00 00 00 00 
3538.1749    2          18FFE699x     Rx d 8 66 3D 0B 14 0F 01 57 25 
3538.1755    2          18FF5081x     Rx d 8 3D 33 A4 36 C7 DB 54 D2 
3538.176     2          10FFE597x     Rx d 8 17 29 FA C8 08 14 98 3A 
3538.1766    2          18FF00EFx     Rx d 8 01 00 00 00 00 00 00 00 
3538.1772    2          18FFE899x     Rx d 8 00 00 1E 20 0E 14 00 15 
3538.1825    2          18FF3AF4x     Rx d 8 CC 06 02 00 41 40 D1 D9 
3538.1831    2          10FFF6F4x     Rx d 8 40 00 01 00 00 00 00 34 
3538.1849    2          18FFE699x     Rx d 8 64 3D 0B 14 0B 01 57 35 
3538.1855    2          18FFC13Ax     Rx d 8 04 3D 3E CD B3 00 00 00 
3538.186     2          10FFE597x     Rx d 8 17 39 FA C8 08 14 98 3A 
3538.1866    2          10F01797x     Rx d 8 0B 66 3D 0B 14 00 00 00 
3538.1871    2          18FFE899x     Rx d 8 00 00 1C 20 0D 14 00 15 
3538.1884    2          18F00A9Ex     Rx d 8 82 48 27 02 51 28 00 C9 
3538.1949    2          18FFE699x     Rx d 8 65 3D 06 14 0B 01 57 45 
3538.1955    2          18FFE899x     Rx d 8 00 00 1C 20 0D 14 00 15 
3538.196     2          10FFE597x     Rx d 8 17 49 FA C8 08 14 98 3A 
3538.1966    2          10FFE497x     Rx d 8 8F 00 00 00 02 00 00 54 
3538.2049    2          18FFE699x     Rx d 8 66 3D 02 14 0D 01 57 55 
3538.2055    2          18FFE899x     Rx d 8 00 00 1E 20 0D 14 00 15 
3538.206     2          10F00697x     Rx d 8 56 60 64 56 00 00 00 05 
3538.2066    2          10FFE597x     Rx d 8 17 59 FA C8 08 14 98 3A 
3538.2072    2          10F01797x     Rx d 8 0B 65 3D 06 14 00 00 00 
3538.1831    1          0CFF83AAx     Rx d 8 FF 6B 49 75 74 B6 00 D4 
3538.1856    1          0CF00203x     Rx d 8 01 70 16 00 00 00 00 00 
3538.1862    1          18FFFE97x     Rx d 8 00 00 00 00 00 00 00 00 
3538.1868    1          0CF00400x     Rx d 8 11 80 81 70 16 00 00 81 
3538.1873    1          18FF20EFx     Rx d 8 F1 81 38 0B 7D EF 00 4F 
3538.1879    1          18FF7097x     Rx d 8 00 7D 00 0B E9 31 14 30 
3538.1904    1          0CFF82BCx     Rx d 8 74 B6 C0 80 1E FF FF CF 
3538.191     1          0CFF84A0x     Rx d 8 C0 00 C3 00 00 7E 7D AD 
3538.1915    1          18F0090Bx     Rx d 8 FF FF FF FF FF FF FF 7D 
3538.1956    1          0CF00203x     Rx d 8 01 60 16 00 00 00 00 00 
3538.1961    1          18FEF117x     Rx d 8 F3 46 15 CF FF FF FF FF 
3538.1967    1          0CEFEF0Bx     Rx d 8 CC FA 7D FF FF FF FF 31 
3538.1973    1          18FF6597x     Rx d 8 01 00 00 00 00 00 00 00 
3538.1979    1          0CF00400x     Rx d 8 11 80 81 60 16 00 00 81 
3538.1984    1          18FF20EFx     Rx d 8 F1 81 30 0B 7D EF 00 4F 
3538.199     1          0C040B97x     Rx d 8 7E 7D CC 00 FF FF FF 8A 
3538.1996    1          18FF8CA9x     Rx d 8 00 00 00 00 00 00 00 00 
3538.2006    1          18F0090Bx     Rx d 8 FF FF FF FF FF FF FF 7D 
3538.2025    1          08FE6E0Bx     Rx d 8 28 15 3E 15 34 15 1E 15 
3538.2031    1          0CFF83AAx     Rx d 8 FF 6C 55 75 74 B6 00 E4 
3538.2056    1          0CF00203x     Rx d 8 01 68 16 00 00 00 00 00 
3538.2061    1          18FFEB97x     Rx d 8 65 3D 65 3D 00 00 00 00 
3538.2067    1          0CF00400x     Rx d 8 11 80 81 68 16 00 00 81 
3538.2073    1          0CFE6CEEx     Rx d 8 FF FF FF FF FF FF 46 15 
3538.2079    1          0CFE6C17x     Rx d 8 FF FF FF FF FF FF 46 15 
3538.2084    1          18FA0117x     Rx d 8 10 00 F0 C3 0F FF FF FF 
3538.209     1          18FF20EFx     Rx d 8 F1 81 34 0B 7D EF 00 4F 
3538.2095    1          18FF7097x     Rx d 8 00 7D 00 0B E9 32 14 50 
3538.2101    1          0CF00300x     Rx d 8 00 07 00 00 00 00 00 00 
3538.2107    1          0CFF82BCx     Rx d 8 74 B6 C0 80 1E FF FF DF 
3538.2113    1          0CFF84A0x     Rx d 8 C0 00 C3 00 00 7E 7D BE 
3538.2119    1          18F0090Bx     Rx d 8 FF FF FF FF FF FF FF 7D 
3538.2124    1          18FFC7BCx     Rx d 8 00 C9 01 F6 00 28 28 00 
3538.213     1          18FEBF0Bx     Rx d 8 32 15 7D 7D 7D 7D FF FF 
3538.2136    1          18FFC8A0x     Rx d 8 01 10 FF FF 00 FF FF FF 
3538.2141    1          18FFC9A0x     Rx d 8 C3 FB C8 FF FF FF FF FF 
3538.2156    1          0CF00203x     Rx d 8 01 70 16 00 00 00 00 00 
3538.2162    1          18FFEA97x     Rx d 8 13 08 01 01 00 00 00 00 
3538.2167    1          0CF00400x     Rx d 8 11 80 81 70 16 00 00 81 
3538.2173    1          18F001ACx     Rx d 8 FF FF FF FF FF FF FF F3 
3538.2179    1          18FF20EFx     Rx d 8 F1 81 38 0B 7D EF 00 4F 
3538.2184    1          0C040B97x     Rx d 8 7E 7D CC 00 FF FF FF 9B 
3538.215     2          18FFE699x     Rx d 8 66 3D 0A 14 0D 01 57 65 
3538.2155    2          18FFE899x     Rx d 8 00 00 1C 20 0D 14 00 15 
3538.2161    2          10FFE597x     Rx d 8 17 69 FA C8 08 14 98 3A 
3538.2197    2          18FFE398x     Rx d 8 0F 00 1D 94 0C 00 5F B0 
3538.2206    2          18FFC698x     Rx d 8 02 00 02 00 00 00 00 00 
3538.2216    2          18FFF298x     Rx d 8 1D 14 0F 14 00 01 01 DD 
3538.2225    2          18F0089Ex     Rx d 8 82 43 88 07 4B 64 00 60 
3538.223     2          10FFF5F4x     Rx d 8 05 08 7D 8B 00 00 00 00 
3538.225     2          18FFE699x     Rx d 8 65 3D 08 14 0A 01 57 75 
3538.2256    2          18FFE899x     Rx d 8 00 00 1B 20 0D 14 00 15 
3538.2261    2          10FFE597x     Rx d 8 17 79 FA C8 08 14 98 3A 
3538.2267    2          10F01797x     Rx d 8 0B 66 3D 0A 14 00 00 00 
3538.2326    2          10FFF6F4x     Rx d 8 40 00 01 00 00 00 00 35 
3538.2334    2          18F401A8x     Rx d 8 01 1B 00 00 D1 51 00 00 
3538.235     2          18FFE699x     Rx d 8 67 3D FE 13 0B 01 57 85 
3538.2356    2          18FFE899x     Rx d 8 00 00 1F 20 0D 14 00 15 
3538.2361    2          10FFE597x     Rx d 8 17 89 FA C8 08 14 98 3A 
3538.245     2          18FFE699x     Rx d 8 67 3D 02 14 0D 01 57 95 
3538.2456    2          18FFE899x     Rx d 8 00 00 20 20 0E 14 00 15 
3538.2461    2          18FF3197x     Rx d 8 7F 02 7B 02 F3 01 F3 01 
3538.2467    2          10FFE597x     Rx d 8 17 99 FA C8 07 14 98 3A 
3538.2472    2          10F01797x     Rx d 8 0B 67 3D FE 13 00 00 00 
3538.2478    2          10FFE497x     Rx d 8 8F 00 00 00 02 00 00 59 
3538.2195    1          18FEF121x     Rx d 8 FF FF FF FF 00 FF FF FF 
3538.2201    1          18FFA091x     Rx d 8 A0 F0 30 FC FF FF FF 46 
3538.2206    1          18F0090Bx     Rx d 8 FF FF FF FF FF FF FF 7D 
3538.2225    1          08FE6E0Bx     Rx d 8 2E 15 26 15 2C 15 26 15 
3538.2231    1          0CFF83AAx     Rx d 8 FF 6D 5F 75 74 B7 00 F4 
3538.2256    1          0CF00203x     Rx d 8 01 70 16 00 00 00 00 00 
3538.2261    1          18FF2997x     Rx d 8 02 2F 03 17 00 E3 00 00 
3538.2267    1          0CF00400x     Rx d 8 11 80 81 70 16 00 00 81 
3538.2273    1          18FF20EFx     Rx d 8 F1 81 38 0B 7D EF 00 4F 
3538.2278    1          18FF7097x     Rx d 8 00 7D 00 0B E9 33 14 70 
3538.2304    1          0CFF82BCx     Rx d 8 74 B6 C0 80 1E FF FF EF 
3538.231     1          0CFF84A0x     Rx d 8 C0 00 C3 00 00 7E 7D CF 
3538.2315    1          18F0090Bx     Rx d 8 FF FF FF FF FF FF FF 7D 
3538.2356    1          18EBFFEFx     Rx d 8 03 FF FF D0 07 FF FF FF 
3538.2361    1          0CF00203x     Rx d 8 01 68 16 00 00 00 00 00 
3538.2367    1          0CF00400x     Rx d 8 11 80 81 68 16 00 00 81 
3538.2373    1          18FF20EFx     Rx d 8 F1 81 34 0B 7D EF 00 4F 
3538.2378    1          0C040B97x     Rx d 8 7E 7D CC 00 FF FF FF AC 
3538.2406    1          18F0090Bx     Rx d 8 FF FF FF FF FF FF FF 7D 
3538.2425    1          08FE6E0Bx     Rx d 8 58 15 1A 15 30 15 26 15 
3538.2431    1          0CFF83AAx     Rx d 8 FF 6E 68 75 74 B7 00 04 
3538.2456    1          18EBFF00x     Rx d 8 03 FF FF FF FF FF F0 0A 
3538.2461    1          18FEA297x     Rx d 8 00 24 2C 03 F0 0A 00 28 
3538.2467    1          0CF00203x     Rx d 8 01 78 16 00 00 00 00 00 
3538.2473    1          0CF00400x     Rx d 8 11 80 81 78 16 00 00 81 
3538.2478    1          18FF20EFx     Rx d 8 F1 81 3C 0B 7D EF 00 4F 
3538.2484    1          18FF7097x     Rx d 8 00 7D 00 0A E9 34 14 90 
3538.249     1          18FFFB97x     Rx d 8 04 00 00 00 88 13 0A 2C 
3538.2495    1          18FF8CA9x     Rx d 8 00 00 00 00 00 00 00 00 
3538.2501    1          18FEDFEFx     Rx d 8 7D 00 00 00 7D 00 00 00 
3538.2507    1          0CFF82BCx     Rx d 8 74 B6 C0 80 1E FF FF FF 
3538.2513    1          0CFF84A0x     Rx d 8 C0 00 C3 00 00 7E 7D D0 
3538.2487    2          18FF0B97x     Rx d 8 0A 1D 14 00 00 00 00 59 
3538.255     2          18FFE699x     Rx d 8 66 3D 0B 14 0B 01 57 A5 
3538.2556    2          18FFE899x     Rx d 8 00 00 1A 20 0E 14 00 15 
3538.2562    2          18FF3097x     Rx d 8 D1 00 10 00 00 00 00 00 
3538.2567    2          10FFE597x     Rx d 8 17 A9 FA C8 07 14 98 3A 
3538.2587    2          18FEE097x     Rx d 8 00 00 00 00 50 00 00 00 
3538.2518    1          18F0090Bx     Rx d 8 FF FF FF FF FF FF FF 7D 
3538.2556    1          0CF00203x     Rx d 8 01 78 16 00 00 00 00 00 
3538.2562    1          0CFE6CEEx     Rx d 8 FF FF FF FF FF FF 46 15 
3538.2567    1          18F00503x     Rx d 8 7E E8 03 7E 00 00 00 00 
3538.2573    1          0CF00400x     Rx d 8 11 80 81 78 16 00 00 81 
3538.2579    1          0CFE6C17x     Rx d 8 FF FF FF FF FF FF 46 15 
3538.2584    1          18FA0117x     Rx d 8 10 00 F0 C3 0F FF FF FF 
3538.259     1          18FFF897x     Rx d 8 2C 14 E2 7D F1 3E 3D 04 
3538.2596    1          18FF20EFx     Rx d 8 F1 81 3C 0B 7D EF 00 4F 
3538.2601    1          0C040B97x     Rx d 8 7E 7D CC 00 FF FF FF BD 
3538.2607    1          0C00000Bx     Rx d 8 30 FF FF FA FF FF FF 52 
3538.2613    1          0CF00300x     Rx d 8 00 07 00 00 00 00 00 00 
3538.2619    1          18F0090Bx     Rx d 8 FF FF FF FF FF FF FF 7D 
3538.2624    1          18FFC7BCx     Rx d 8 00 C9 01 F6 00 28 28 00 
3538.263     1          08FE6E0Bx     Rx d 8 4A 15 1A 15 32 15 26 15 
3538.2635    1          0CFF83AAx     Rx d 8 FF 6F 74 75 74 B8 00 14 
3538.2641    1          18FEBF0Bx     Rx d 8 32 15 7E 7C 7D 7D FF FF 
3538.2647    1          18F0010Bx     Rx d 8 00 00 C3 FF FF 01 FF F3 
3538.2656    1          0CF00203x     Rx d 8 01 70 16 00 00 00 00 00 
3538.2662    1          18FEF100x     Rx d 8 00 36 14 00 00 00 00 00 
3538.2668    1          0CF00400x     Rx d 8 11 80 81 70 16 00 00 81 
3538.2673    1          18FE4F0Bx     Rx d 8 FF FF FF FF FF FF FF FF 
3538.2679    1          18FF20EFx     Rx d 8 F1 81 38 0B 7D EF 00 4F 
3538.2685    1          18FF7097x     Rx d 8 00 7D 00 0B E9 36 14 B0 
3538.269     1          18FEAD0Bx     Rx d 8 00 00 00 00 FE FE FF FF 
3538.2696    1          18FFF797x     Rx d 8 4C 4A 00 00 50 C3 62 02 
3538.2704    1          0CFF82BCx     Rx d 8 74 B7 C0 80 1E FF FF 0F 
3538.271     1          0CFF84A0x     Rx d 8 C0 00 C3 00 00 7E 7D E1 
3538.265     2          18FFE699x     Rx d 8 67 3D 09 14 0A 01 57 B5 
3538.2656    2          18FFE899x     Rx d 8 00 00 1B 20 0D 14 00 15 
3538.2661    2          10FFE597x     Rx d 8 17 B9 FA C8 07 14 98 3A 
3538.2667    2          10F01797x     Rx d 8 0B 66 3D 0B 14 00 00 00 
3538.2689    2          18FF3297x     Rx d 8 88 28 00 FF 01 00 00 00 
3538.2703    2          18FFE398x     Rx d 8 0F 00 1B 94 0C 00 5F C0 
3538.2712    2          18FFC698x     Rx d 8 2E 00 19 00 00 00 00 00 
3538.2722    2          18FFF298x     Rx d 8 1B 14 0A 14 00 01 01 DE 
3538.2732    2          10FFF5F4x     Rx d 8 05 08 7D 8B 00 00 00 00 
3538.2751    2          18FFE699x     Rx d 8 67 3D FF 13 0B 01 57 C5 
3538.2757    2          10FFE597x     Rx d 8 17 C9 FA C8 07 14 98 3A 
3538.2762    2          18FF5081x     Rx d 8 3D 33 A4 36 C7 DB 54 D2 
3538.2768    2          18FF00EFx     Rx d 8 01 00 00 00 00 00 00 00 
3538.2774    2          18FFE899x     Rx d 8 00 00 20 20 0E 14 00 15 
3538.2826    2          10FFF6F4x     Rx d 8 40 00 01 00 00 00 00 36 
3538.2851    2          18FFE699x     Rx d 8 68 3D 06 14 0D 01 57 D5 
3538.2857    2          10FFE597x     Rx d 8 17 D9 FA C8 07 14 98 3A 
3538.2862    2          10F01797x     Rx d 8 0B 67 3D FF 13 00 00 00 
3538.2868    2          18FFE899x     Rx d 8 00 00 21 20 0E 14 00 15 
3538.2716    1          18F0090Bx     Rx d 8 FF FF FF FF FF FF FF 7D 
3538.2756    1          18FA0617x     Rx d 8 30 00 FF FF FF FF FF FF 
3538.2761    1          18FE4A03x     Rx d 8 00 01 00 00 00 00 00 00 
3538.2767    1          0CF00203x     Rx d 8 01 78 16 00 00 00 00 00 
3538.2773    1          0CF00400x     Rx d 8 11 80 81 78 16 00 00 81 
3538.2779    1          18FDC40Bx     Rx d 8 00 00 64 F3 FF FF FF FF 
3538.2784    1          18FF20EFx     Rx d 8 F1 81 3C 0B 7D EF 00 4F 
3538.279     1          0C040B97x     Rx d 8 7E 7D CC 00 FF FF FF CE 
3538.2806    1          18F0090Bx     Rx d 8 FF FF FF FF FF FF FF 7D 
3538.2825    1          08FE6E0Bx     Rx d 8 40 15 08 15 38 15 32 15 
3538.2831    1          0CFF83AAx     Rx d 8 FF 71 7E 75 74 B9 00 24 
3538.2856    1          0CF00203x     Rx d 8 01 78 16 00 00 00 00 00 
3538.2862    1          18FFFE97x     Rx d 8 00 00 00 00 00 00 00 00 
3538.2868    1          0CF00400x     Rx d 8 11 80 81 78 16 00 00 81 
3538.2873    1          18FF20EFx     Rx d 8 F1 81 3C 0B 7D EF 00 4F 
3538.2879    1          18FF7097x     Rx d 8 00 7D 00 0A E9 38 14 D0 
3538.2904    1          0CFF82BCx     Rx d 8 74 B7 C0 80 1E FF FF 1F 
3538.291     1          0CFF84A0x     Rx d 8 C0 00 C3 00 00 7E 7D F2 
3538.2916    1          18F0090Bx     Rx d 8 FF FF FF FF FF FF FF 7D 
3538.2956    1          0CF00203x     Rx d 8 01 80 16 00 00 00 00 00 
3538.2962    1          18FEF117x     Rx d 8 F3 55 15 CF FF FF FF FF 
3538.2951    2          18FFE699x     Rx d 8 67 3D 08 14 0A 01 57 E5 
3538.2957    2          10FFE597x     Rx d 8 17 E9 FA C8 07 14 98 3A 
3538.2963    2          10FFE497x     Rx d 8 8F 00 00 00 02 00 00 5E 
3538.2968    2          18FFE899x     Rx d 8 00 00 1C 20 0E 14 00 15 
3538.3051    2          18FFE699x     Rx d 8 68 3D 08 14 0A 01 57 F5 
3538.3057    2          10FFE597x     Rx d 8 17 F9 FA C8 07 14 98 3A 
3538.3062    2          10F01797x     Rx d 8 0B 67 3D 08 14 00 00 00 
3538.3068    2          18FFE899x     Rx d 8 00 00 1C 20 0D 14 00 15 
3538.2967    1          0CEFEF0Bx     Rx d 8 CC FA 7D FF FF FF FF 42 
3538.2973    1          18FF6597x     Rx d 8 01 00 00 00 00 00 00 00 
3538.2979    1          0CF00400x     Rx d 8 11 80 81 80 16 00 00 81 
3538.2984    1          18FF20EFx     Rx d 8 F1 81 40 0B 7D EF 00 4F 
3538.299     1          0C040B97x     Rx d 8 7E 7D CC 00 FF FF FF DF 
3538.2996    1          18FF8CA9x     Rx d 8 00 00 00 00 00 00 00 00 
3538.3006    1          18F0090Bx     Rx d 8 FF FF FF FF FF FF FF 7D 
3538.3025    1          08FE6E0Bx     Rx d 8 36 15 F8 14 3A 15 32 15 
3538.3031    1          0CFF83AAx     Rx d 8 FF 72 8B 75 74 BA 00 34 
3538.3056    1          0CF00203x     Rx d 8 01 78 16 00 00 00 00 00 
3538.3062    1          0CFE6CEEx     Rx d 8 FF FF FF FF FF FF 55 15 
3538.3067    1          18FFEB97x     Rx d 8 67 3D 67 3D 00 00 00 00 
3538.3073    1          0CF00400x     Rx d 8 11 80 81 78 16 00 00 81 
3538.3079    1          0CFE6C17x     Rx d 8 FF FF FF FF FF FF 55 15 
3538.3084    1          18FA0117x     Rx d 8 10 00 F0 C3 0F FF FF FF 
3538.309     1          18FF20EFx     Rx d 8 F1 81 3C 0B 7D EF 00 4F 
3538.3095    1          18FF7097x     Rx d 8 00 7D 00 0B E9 3A 14 F0 
3538.3101    1          0CF00300x     Rx d 8 00 07 00 00 00 00 00 00 
3538.3107    1          0CFF82BCx     Rx d 8 74 B8 C0 80 1E FF FF 2F 
3538.3113    1          0CFF84A0x     Rx d 8 C0 00 C3 00 00 7E 7D 03 
3538.3119    1          18F0090Bx     Rx d 8 FF FF FF FF FF FF FF 7D 
3538.3124    1          18FFC7BCx     Rx d 8 00 C9 01 F6 00 28 28 00 
3538.313     1          18FEBF0Bx     Rx d 8 1F 15 7E 7C 7F 7E FF FF 
3538.3136    1          18FFC8A0x     Rx d 8 01 10 FF FF 00 FF FF FF 
3538.3141    1          18FFC9A0x     Rx d 8 C3 FB C8 FF FF FF FF FF 
3538.3155    2          18FFE699x     Rx d 8 68 3D 09 14 0C 01 57 05 
3538.3161    2          10FFE597x     Rx d 8 17 09 FA C8 07 14 98 3A 
3538.3166    2          18FFE899x     Rx d 8 00 00 1F 20 0E 14 00 15 
3538.3209    2          18FFE398x     Rx d 8 0F 00 18 94 0C 00 5F D0 
3538.3218    2          18FFC698x     Rx d 8 04 00 04 00 00 00 00 00 
3538.3228    2          18FFF298x     Rx d 8 18 14 18 14 00 01 01 DF 
3538.3233    2          10FFECF4x     Rx d 8 2C 34 E6 7D C6 B3 DD C3 
3538.3239    2          10FFF5F4x     Rx d 8 05 08 7D 8B 00 00 00 00 
3538.3245    2          18F0089Ex     Rx d 8 83 48 88 07 4B 64 00 60 
3538.325     2          18F0099Ex     Rx d 8 87 00 7D 00 49 64 00 00 
3538.3256    2          18FFE699x     Rx d 8 68 3D 0F 14 0C 01 57 15 
3538.3261    2          10FFE597x     Rx d 8 17 19 FA C8 07 14 98 3A 
3538.3267    2          10F01797x     Rx d 8 0B 68 3D 09 14 00 00 00 
3538.3272    2          18FFE899x     Rx d 8 00 00 1C 20 0E 14 00 15 
3538.3156    1          0CF00203x     Rx d 8 01 80 16 00 00 00 00 00 
3538.3162    1          18FFEA97x     Rx d 8 13 08 01 01 00 00 00 00 
3538.3167    1          0CF00400x     Rx d 8 11 80 81 80 16 00 00 81 
3538.3173    1          18F001ACx     Rx d 8 FF FF FF FF FF FF FF F3 
3538.3179    1          18FF20EFx     Rx d 8 F1 81 40 0B 7D EF 00 4F 
3538.3185    1          0C040B97x     Rx d 8 7E 7D CC 00 FF FF FF D0 
3538.319     1          18FF8DACx     Rx d 8 00 0A 4A 00 00 00 00 00 
3538.3196    1          18FEF121x     Rx d 8 FF FF FF FF 00 FF FF FF 
3538.3206    1          18F0090Bx     Rx d 8 FF FF FF FF FF FF FF 7D 
3538.3211    1          18FFA091x     Rx d 8 A0 F0 30 FC FF FF FF 46 
3538.3225    1          08FE6E0Bx     Rx d 8 2E 15 14 15 2A 15 2E 15 
3538.3231    1          0CFF83AAx     Rx d 8 FF 72 96 75 74 BC 00 44 
3538.3256    1          0CF00203x     Rx d 8 01 80 16 00 00 00 00 00 
3538.3262    1          18FF2997x     Rx d 8 02 2E 03 17 00 E3 00 00 
3538.3267    1          0CF00400x     Rx d 8 11 80 81 80 16 00 00 81 
3538.3273    1          18FF20EFx     Rx d 8 F1 81 40 0B 7D EF 00 4F 
3538.3279    1          18FF7097x     Rx d 8 00 7D 00 0B E9 3C 14 10 
3538.3304    1          0CFF82BCx     Rx d 8 74 B9 C0 80 1E FF FF 3F 
3538.331     1          0CFF84A0x     Rx d 8 C0 00 C3 00 00 7E 7D 14 
3538.3338    2          10FFF6F4x     Rx d 8 40 00 01 00 00 00 00 37 
3538.3352    2          18FFE699x     Rx d 8 68 3D 04 14 0A 01 57 25 
3538.3358    2          10FFE597x     Rx d 8 17 29 FA C8 07 14 98 3A 
3538.3363    2          18FFE899x     Rx d 8 00 00 1D 20 0E 14 00 15 
3538.3316    1          18F0090Bx     Rx d 8 FF FF FF FF FF FF FF 7D 
3538.3356    1          0CF00203x     Rx d 8 01 80 16 00 00 00 00 00 
3538.3362    1          0CF00400x     Rx d 8 11 80 81 80 16 00 00 81 
3538.3367    1          18FF20EFx     Rx d 8 F1 81 40 0B 7D EF 00 4F 
3538.3373    1          0C040B97x     Rx d 8 7E 7D CC 00 FF FF FF E1 
3538.3406    1          18F0090Bx     Rx d 8 FF FF FF FF FF FF FF 7D 
3538.3425    1          08FE6E0Bx     Rx d 8 2E 15 18 15 34 15 34 15 
3538.3431    1          0CFF83AAx     Rx d 8 FF 74 9F 75 74 BD 00 54 
3538.3456    1          0CF00203x     Rx d 8 01 80 16 00 00 00 00 00 
3538.3462    1          18FA1117x     Rx d 8 01 00 00 00 00 3C 00 00 
3538.3467    1          18FEA297x     Rx d 8 00 24 2C 03 F0 0A 00 28 
3538.3452    2          18FFE699x     Rx d 8 68 3D 01 14 0C 01 57 35 
3538.3458    2          18FF3197x     Rx d 8 7E 02 7B 02 F3 01 F3 01 
3538.3463    2          10FFE597x     Rx d 8 17 39 FA C8 07 14 98 3A 
3538.3469    2          10F01797x     Rx d 8 0B 68 3D 04 14 00 00 00 
3538.3475    2          10FFE497x     Rx d 8 8F 00 00 00 02 00 00 63 
3538.348     2          18FFE899x     Rx d 8 00 00 1F 20 0E 14 00 15 
3538.3552    2          18FFE699x     Rx d 8 69 3D 11 14 0F 01 57 45 
3538.3558    2          18FF3097x     Rx d 8 D1 00 10 00 00 00 00 00 
3538.3563    2          10FFE597x     Rx d 8 17 49 FA C8 07 14 98 3A 
3538.3569    2          18FFE899x     Rx d 8 00 00 1F 20 0E 14 00 15 
3538.3473    1          0CF00400x     Rx d 8 11 80 81 80 16 00 00 81 
3538.3479    1          18FF20EFx     Rx d 8 F1 81 40 0B 7D EF 00 4F 
3538.3484    1          18FF7097x     Rx d 8 00 7D 00 0B E9 3E 14 30 
3538.349     1          18FF8CA9x     Rx d 8 00 00 00 00 00 00 00 00 
3538.3504    1          0CFF82BCx     Rx d 8 74 BA C0 80 1E FF FF 4F 
3538.351     1          0CFF84A0x     Rx d 8 C0 00 C3 00 00 7E 7D 25 
3538.3516    1          18F0090Bx     Rx d 8 FF FF FF FF FF FF FF 7D 
3538.3556    1          0CF00203x     Rx d 8 01 80 16 00 00 00 00 00 
3538.3562    1          0CFE6CEEx     Rx d 8 FF FF FF FF FF FF 55 15 
3538.3567    1          18F00503x     Rx d 8 7E E8 03 7E 00 00 00 00 
3538.3573    1          0CF00400x     Rx d 8 11 80 81 80 16 00 00 81 
3538.3579    1          0CFE6C17x     Rx d 8 FF FF FF FF FF FF 55 15 
3538.3584    1          18FA0117x     Rx d 8 10 00 F0 C3 0F FF FF FF 
3538.359     1          18FF20EFx     Rx d 8 F1 81 40 0B 7D EF 00 4F 
3538.3596    1          0C040B97x     Rx d 8 7E 7D CC 00 FF FF FF F2 
3538.3602    1          0CF00300x     Rx d 8 00 07 00 00 00 00 00 00 
3538.3607    1          0C00000Bx     Rx d 8 30 FF FF FA FF FF FF 63 
3538.3613    1          18F0090Bx     Rx d 8 FF FF FF FF FF FF FF 7D 
3538.3652    2          18FFE699x     Rx d 8 68 3D 11 14 0C 01 57 55 
3538.3658    2          10FFE597x     Rx d 8 17 59 FA C8 07 14 98 3A 
3538.3663    2          10F01797x     Rx d 8 0B 69 3D 11 14 00 00 00 
3538.3669    2          18FFE899x     Rx d 8 00 00 1C 20 0E 14 00 15 
3538.3715    2          18FFE398x     Rx d 8 0F 00 1D 94 0C 00 5F E0 
3538.3724    2          18FFC698x     Rx d 8 27 00 37 00 00 00 00 00 
3538.3734    2          18FFF298x     Rx d 8 1D 14 0F 14 00 01 01 E0 
3538.374     2          10FFF5F4x     Rx d 8 05 08 7D 8B 00 00 00 00 
3538.3752    2          18FFE699x     Rx d 8 68 3D 03 14 0C 01 57 65 
3538.3619    1          18FFC7BCx     Rx d 8 00 C9 01 F6 00 28 28 00 
3538.3626    1          08FE6E0Bx     Rx d 8 36 15 20 15 38 15 2E 15 
3538.3631    1          18FEBF0Bx     Rx d 8 2B 15 7D 7D 7D 7D FF FF 
3538.3637    1          0CFF83AAx     Rx d 8 FF 74 A9 75 74 BE 00 64 
3538.3646    1          18F0010Bx     Rx d 8 00 00 C3 FF FF 01 FF F3 
3538.3656    1          0CF00203x     Rx d 8 01 88 16 00 00 00 00 00 
3538.3662    1          18FEF100x     Rx d 8 00 40 14 00 00 00 00 00 
3538.3668    1          0CF00400x     Rx d 8 11 80 81 88 16 00 00 81 
3538.3673    1          18FE4F0Bx     Rx d 8 FF FF FF FF FF FF FF FF 
3538.3679    1          18FF20EFx     Rx d 8 F1 81 44 0B 7D EF 00 4F 
3538.3684    1          18FF7097x     Rx d 8 00 7D 00 0C E9 40 14 50 
3538.369     1          18FEAD0Bx     Rx d 8 00 00 00 00 FE FE FF FF 
3538.3704    1          0CFF82BCx     Rx d 8 74 BC C0 80 1E FF FF 5F 
3538.371     1          0CFF84A0x     Rx d 8 C0 00 C3 00 00 7E 7D 36 
3538.3716    1          18F0090Bx     Rx d 8 FF FF FF FF FF FF FF 7D 
3538.3756    1          0CF00203x     Rx d 8 01 80 16 00 00 00 00 00 
3538.3762    1          18FE4A03x     Rx d 8 00 01 00 00 00 00 00 00 
3538.3768    1          0CF00400x     Rx d 8 11 80 81 80 16 00 00 81 
3538.3773    1          18FDC40Bx     Rx d 8 00 00 64 F3 FF FF FF FF 
3538.3779    1          18FF20EFx     Rx d 8 F1 81 40 0B 7D EF 00 4F 
3538.3785    1          0C040B97x     Rx d 8 7E 7D CC 00 FF FF FF 03 
3538.3758    2          10FFE597x     Rx d 8 17 69 FA C8 07 14 98 3A 
3538.3763    2          18FF5081x     Rx d 8 3D 33 A4 36 C7 DB 54 D2 
3538.3769    2          18FF00EFx     Rx d 8 01 00 00 00 00 00 00 00 
3538.3775    2          18FFE899x     Rx d 8 00 00 1E 20 0E 14 00 15 
3538.3825    2          10FFF6F4x     Rx d 8 40 00 01 00 00 00 00 38 
3538.3853    2          18FFE699x     Rx d 8 69 3D FF 13 0E 01 57 75 
3538.3859    2          10FFE597x     Rx d 8 17 79 FA C8 07 14 98 3A 
3538.3864    2          10F01797x     Rx d 8 0B 68 3D 03 14 00 00 00 
3538.387     2          18FFE899x     Rx d 8 00 00 20 20 0E 14 00 15 
3538.3953    2          18FFE699x     Rx d 8 68 3D 0C 14 0E 01 57 85 
3538.3959    2          10FFE597x     Rx d 8 17 89 FA C8 07 14 98 3A 
3538.3964    2          10FFE497x     Rx d 8 8F 00 00 00 02 00 00 68 
3538.397     2          18FFE899x     Rx d 8 00 00 1D 20 0E 14 00 15 
3538.4053    2          18FFE699x     Rx d 8 67 3D 08 14 0A 01 57 95 
3538.4059    2          10F00697x     Rx d 8 56 60 64 56 00 00 00 05 
3538.4064    2          10FFE597x     Rx d 8 17 99 FA C8 07 14 98 3A 
3538.3806    1          18F0090Bx     Rx d 8 FF FF FF FF FF FF FF 7D 
3538.3825    1          08FE6E0Bx     Rx d 8 08 15 4E 15 3C 15 2C 15 
3538.3831    1          0CFF83AAx     Rx d 8 FF 74 B0 75 74 C0 00 74 
3538.3856    1          0CF00203x     Rx d 8 01 80 16 00 00 00 00 00 
3538.3862    1          18FFFE97x     Rx d 8 00 00 00 00 00 00 00 00 
3538.3868    1          0CF00400x     Rx d 8 11 80 81 80 16 00 00 81 
3538.3873    1          18FF20EFx     Rx d 8 F1 81 40 0B 7D EF 00 4F 
3538.3879    1          18FF7097x     Rx d 8 00 7D 00 0A E9 42 14 70 
3538.3904    1          0CFF82BCx     Rx d 8 74 BD C0 80 1E FF FF 6F 
3538.391     1          0CFF84A0x     Rx d 8 C0 00 C3 00 00 7E 7D 47 
3538.3915    1          18F0090Bx     Rx d 8 FF FF FF FF FF FF FF 7D 
3538.3954    1          18FEF117x     Rx d 8 F3 5D 15 CF FF FF FF FF 
3538.396     1          18FF6597x     Rx d 8 01 00 00 00 00 00 00 00 
3538.3966    1          0CEFEF0Bx     Rx d 8 CC FA 7D FF FF FF FF 53 
3538.3972    1          0CF00203x     Rx d 8 01 88 16 00 00 00 00 00 
3538.3977    1          0CF00400x     Rx d 8 11 80 81 88 16 00 00 81 
3538.3983    1          18FF20EFx     Rx d 8 F1 81 44 0B 7D EF 00 4F 
3538.3989    1          0C040B97x     Rx d 8 7E 7D CC 00 FF FF FF 14 
3538.3995    1          18FF8CA9x     Rx d 8 00 00 00 00 00 00 00 00 
3538.4       1          18EBFF00x     Rx d 8 04 FF FF FF FF FF FF FF 
3538.4006    1          18F0090Bx     Rx d 8 FF FF FF FF FF FF FF 7D 
3538.4025    1          08FE6E0Bx     Rx d 8 24 15 3C 15 3A 15 1E 15 
3538.4031    1          0CFF83AAx     Rx d 8 FF 74 B6 75 74 C3 00 84 
3538.4056    1          0CF00203x     Rx d 8 01 80 16 00 00 00 00 00 
3538.4062    1          0CFE6CEEx     Rx d 8 FF FF FF FF FF FF 5D 15 
3538.4067    1          18FFEB97x     Rx d 8 68 3D 68 3D 00 00 00 00 
3538.4073    1          0CF00400x     Rx d 8 11 80 81 80 16 00 00 81 
3538.4079    1          0CFE6C17x     Rx d 8 FF FF FF FF FF FF 5D 15 
3538.4084    1          18FA0117x     Rx d 8 10 00 F0 C3 0F FF FF FF 
3538.409     1          18FF20EFx     Rx d 8 F1 81 40 0B 7D EF 00 4F 
3538.4096    1          18FF7097x     Rx d 8 00 7D 00 0B E9 44 14 90 
3538.4102    1          0CF00300x     Rx d 8 00 07 00 00 00 00 00 00 
3538.4107    1          0CFF82BCx     Rx d 8 74 BE C0 80 1E FF FF 7F 
3538.4113    1          0CFF84A0x     Rx d 8 C0 00 C3 00 00 7E 7D 58 
3538.4119    1          18F0090Bx     Rx d 8 FF FF FF FF FF FF FF 7D 
3538.4125    1          18FFC7BCx     Rx d 8 00 C9 01 F6 00 28 28 00 
3538.413     1          18FEBF0Bx     Rx d 8 2E 15 7D 7D 7E 7D FF FF 
3538.4136    1          18FFC8A0x     Rx d 8 01 10 FF FF 00 FF FF FF 
3538.4142    1          18FFC9A0x     Rx d 8 C3 FB C8 FF FF FF FF FF 
3538.4156    1          0CF00203x     Rx d 8 01 78 16 00 00 00 00 00 
3538.4162    1          18FFEA97x     Rx d 8 13 08 01 01 00 00 00 00 
3538.407     2          10F01797x     Rx d 8 0B 68 3D 0C 14 00 00 00 
3538.4076    2          18FFE899x     Rx d 8 00 00 1C 20 0E 14 00 15 
3538.4153    2          18FFE699x     Rx d 8 69 3D 01 14 0B 01 57 A5 
3538.4159    2          10FFE597x     Rx d 8 17 A9 FA C8 07 14 98 3A 
3538.4164    2          18FFE899x     Rx d 8 00 00 20 20 0E 14 00 15 
3538.4221    2          18FFE398x     Rx d 8 0F 00 1B 94 0C 00 5F 00 
3538.4228    2          10FFF5F4x     Rx d 8 05 08 7D 8B 00 00 00 00 
3538.4234    2          18FFC698x     Rx d 8 04 00 04 00 00 00 00 00 
3538.424     2          18FFF298x     Rx d 8 1B 14 11 14 00 01 01 E1 
3538.4249    2          18F0089Ex     Rx d 8 84 47 88 07 4B 64 00 60 
3538.4255    2          18FFE699x     Rx d 8 69 3D 05 14 0E 01 57 B5 
3538.4266    2          10FFE597x     Rx d 8 17 B9 FA C8 07 14 98 3A 
3538.4272    2          10F01797x     Rx d 8 0B 69 3D 01 14 00 00 00 
3538.4277    2          18FFE899x     Rx d 8 00 00 20 20 0E 14 00 15 
3538.4325    2          10FFF6F4x     Rx d 8 40 00 01 00 00 00 00 39 
3538.4354    2          18FFE699x     Rx d 8 68 3D 07 14 0B 01 57 C5 
3538.436     2          10FFE597x     Rx d 8 17 C9 FA C8 07 14 98 3A 
3538.4365    2          18FFE899x     Rx d 8 00 00 1D 20 0E 14 00 15 
3538.4167    1          0CF00400x     Rx d 8 11 80 81 78 16 00 00 81 
3538.4173    1          18F001ACx     Rx d 8 FF FF FF FF FF FF FF F3 
3538.4179    1          18FF20EFx     Rx d 8 F1 81 3C 0B 7D EF 00 4F 
3538.4184    1          0C040B97x     Rx d 8 7E 7D CC 00 FF FF FF 25 
3538.4192    1          18FEF121x     Rx d 8 FF FF FF FF 00 FF FF FF 
3538.4198    1          18FFA091x     Rx d 8 A0 F0 30 FC FF FF FF 46 
3538.4206    1          18F0090Bx     Rx d 8 FF FF FF FF FF FF FF 7D 
3538.4225    1          08FE6E0Bx     Rx d 8 2E 15 36 15 3A 15 2A 15 
3538.4231    1          0CFF83AAx     Rx d 8 FF 74 BC 75 74 C6 00 94 
3538.4254    1          18FEC1EEx     Rx d 8 96 3B 0B 00 64 3B 0B 00 
3538.4259    1          18FF2997x     Rx d 8 02 2E 03 17 00 E3 00 00 
3538.4265    1          0CF00203x     Rx d 8 01 88 16 00 00 00 00 00 
3538.4271    1          0CF00400x     Rx d 8 11 80 81 88 16 00 00 81 
3538.4276    1          18FF20EFx     Rx d 8 F1 81 44 0B 7D EF 00 4F 
3538.4282    1          18FF7097x     Rx d 8 00 7D 00 0A E9 45 14 B0 
3538.4304    1          0CFF82BCx     Rx d 8 74 C1 C0 80 1E FF FF 8F 
3538.431     1          0CFF84A0x     Rx d 8 C0 00 C3 00 00 7E 7D 69 
3538.4315    1          18F0090Bx     Rx d 8 FF FF FF FF FF FF FF 7D 
3538.4356    1          0CF00203x     Rx d 8 01 88 16 00 00 00 00 00 
3538.4362    1          0CF00400x     Rx d 8 11 80 81 88 16 00 00 81 
3538.4367    1          18FEAE30x     Rx d 8 FF FF 71 71 FF FF FF FF 
3538.4373    1          18FF20EFx     Rx d 8 F1 81 44 0B 7D EF 00 4F 
3538.4379    1          0C040B97x     Rx d 8 7E 7D CC 00 FF FF FF 36 
3538.4454    2          18FFE699x     Rx d 8 68 3D 05 14 0A 01 57 D5 
3538.446     2          18FF3197x     Rx d 8 7D 02 7B 02 F3 01 F3 01 
3538.4465    2          10FFE597x     Rx d 8 17 D9 FA C8 07 14 98 3A 
3538.4471    2          10F01797x     Rx d 8 0B 68 3D 07 14 00 00 00 
3538.4477    2          10FFE497x     Rx d 8 8F 00 00 00 02 00 00 6D 
3538.4482    2          18FFE899x     Rx d 8 00 00 1C 20 0E 14 00 15 
3538.4406    1          18F0090Bx     Rx d 8 FF FF FF FF FF FF FF 7D 
3538.4425    1          08FE6E0Bx     Rx d 8 38 15 36 15 42 15 2E 15 
3538.4431    1          0CFF83AAx     Rx d 8 FF 74 C4 75 74 C9 00 A4 
3538.4456    1          0CF00203x     Rx d 8 01 80 16 00 00 00 00 00 
3538.4462    1          18FEA297x     Rx d 8 00 24 2C 03 F0 0A 00 28 
3538.4467    1          0CF00400x     Rx d 8 11 80 81 80 16 00 00 81 
3538.4473    1          18FF20EFx     Rx d 8 F1 81 40 0B 7D EF 00 4F 
3538.4479    1          18FF7097x     Rx d 8 00 7D 00 0B E9 47 14 D0 
3538.4485    1          18FF8CA9x     Rx d 8 00 00 00 00 00 00 00 00 
3538.4504    1          0CFF82BCx     Rx d 8 74 C4 C0 80 1E FF FF 9F 
3538.451     1          0CFF84A0x     Rx d 8 C0 00 C3 00 00 7E 7D 7A 
3538.4516    1          18F0090Bx     Rx d 8 FF FF FF FF FF FF FF 7D 
3538.4554    2          18FFE699x     Rx d 8 69 3D 03 14 0C 01 57 E5 
3538.456     2          18FF3097x     Rx d 8 D1 00 10 00 00 00 00 00 
3538.4566    2          10FFE597x     Rx d 8 17 E9 FA C8 07 14 98 3A 
3538.4571    2          18FFE899x     Rx d 8 00 00 20 20 0E 14 00 15 
3538.4654    2          18FFE699x     Rx d 8 68 3D 0C 14 0D 01 57 F5 
3538.466     2          10FFE597x     Rx d 8 17 F9 FA C8 07 14 98 3A 
3538.4665    2          10F01797x     Rx d 8 0B 69 3D 03 14 00 00 00 
3538.4671    2          18FFE899x     Rx d 8 00 00 1F 20 0E 14 00 15 
3538.4556    1          0CF00203x     Rx d 8 01 80 16 00 00 00 00 00 
3538.4562    1          0CFE6CEEx     Rx d 8 FF FF FF FF FF FF 5D 15 
3538.4567    1          18F00503x     Rx d 8 7E E8 03 7E 00 00 00 00 
3538.4573    1          0CF00400x     Rx d 8 11 80 81 80 16 00 00 81 
3538.4579    1          0CFE6C17x     Rx d 8 FF FF FF FF FF FF 5D 15 
3538.4584    1          18FF20EFx     Rx d 8 F1 81 40 0B 7D EF 00 4F 
3538.459     1          0C040B97x     Rx d 8 7E 7D CC 00 FF FF FF 47 
3538.4596    1          0CF00300x     Rx d 8 00 07 00 00 00 00 00 00 
3538.4602    1          18FA0117x     Rx d 8 10 00 F0 C3 0F FF FF FF 
3538.4607    1          0C00000Bx     Rx d 8 30 FF FF FA FF FF FF 14 
3538.4613    1          18F0090Bx     Rx d 8 FF FF FF FF FF FF FF 7D 
3538.4619    1          18FFC7BCx     Rx d 8 00 C9 01 F6 00 28 28 00 
3538.4626    1          08FE6E0Bx     Rx d 8 38 15 3C 15 4A 15 30 15 
3538.4631    1          18FEBF0Bx     Rx d 8 3A 15 7D 7D 7E 7D FF FF 
3538.4637    1          0CFF83AAx     Rx d 8 FF 74 D3 75 74 CC 00 B4 
3538.4646    1          18F0010Bx     Rx d 8 00 00 C3 FF FF 01 FF F3 
3538.4656    1          0CF00203x     Rx d 8 01 88 16 00 00 00 00 00 
3538.4662    1          18FEF100x     Rx d 8 00 48 14 00 00 00 00 00 
3538.4667    1          0CF00400x     Rx d 8 11 80 81 88 16 00 00 81 
3538.4673    1          18FA2017x     Rx d 8 FF 00 FF FF 4A FF FF FF 
3538.4679    1          18FE4F0Bx     Rx d 8 FF FF FF FF FF FF FF FF 
3538.4685    1          18FF20EFx     Rx d 8 F1 81 44 0B 7D EF 00 4F 
3538.469     1          18FEAD0Bx     Rx d 8 00 00 00 00 FE FE FF FF 
3538.4696    1          18FF7097x     Rx d 8 00 7D 00 0A E9 48 14 F0 
3538.4704    1          0CFF82BCx     Rx d 8 74 C7 C0 80 1E FF FF AF 
3538.471     1          0CFF84A0x     Rx d 8 C0 00 C3 00 00 7E 7D 8B 
3538.4727    2          18FFE398x     Rx d 8 0F 00 1D 94 0C 00 5F 10 
3538.4733    2          10FFF5F4x     Rx d 8 05 08 7D 8B 00 00 00 00 
3538.4739    2          18FFC698x     Rx d 8 1B 00 2E 00 00 00 00 00 
3538.4746    2          18FFF298x     Rx d 8 1D 14 08 14 00 01 01 E2 
3538.4754    2          18FFE699x     Rx d 8 67 3D 09 14 0A 01 57 05 
3538.476     2          10FFE597x     Rx d 8 17 09 FA C8 07 14 98 3A 
3538.4765    2          18FF5081x     Rx d 8 3D 33 A4 36 C7 DB 54 D2 
3538.4771    2          18FF00EFx     Rx d 8 01 00 00 00 00 00 00 00 
3538.4777    2          18FFE899x     Rx d 8 00 00 1B 20 0E 14 00 15 
3538.4825    2          10FFF6F4x     Rx d 8 40 00 01 00 00 00 00 3A 
3538.4716    1          18F0090Bx     Rx d 8 FF FF FF FF FF FF FF 7D 
3538.4756    1          0CF00203x     Rx d 8 01 80 16 00 00 00 00 00 
3538.4762    1          18FA0617x     Rx d 8 30 00 FF FF FF FF FF FF 
3538.4768    1          18FDC40Bx     Rx d 8 00 00 64 F3 FF FF FF FF 
3538.4773    1          18FE4A03x     Rx d 8 00 01 00 00 00 00 00 00 
3538.4779    1          0CF00400x     Rx d 8 11 80 81 80 16 00 00 81 
3538.4785    1          18FF20EFx     Rx d 8 F1 81 40 0B 7D EF 00 4F 
3538.479     1          0C040B97x     Rx d 8 7E 7D CC 00 FF FF FF 58 
3538.4806    1          18F0090Bx     Rx d 8 FF FF FF FF FF FF FF 7D 
3538.4826    1          08FE6E0Bx     Rx d 8 32 15 2A 15 3E 15 34 15 
3538.4831    1          0CFF83AAx     Rx d 8 FF 75 E0 75 74 D0 01 C4 
3538.4856    1          0CF00203x     Rx d 8 01 78 16 00 00 00 00 00 
3538.4862    1          18FFFE97x     Rx d 8 00 00 00 00 00 00 00 00 
3538.4855    2          18FFE699x     Rx d 8 68 3D 07 14 0B 01 57 15 
3538.4861    2          10FFE597x     Rx d 8 17 19 FA C8 07 14 98 3A 
3538.4866    2          10F01797x     Rx d 8 0B 67 3D 09 14 00 00 00 
3538.4872    2          18FFE899x     Rx d 8 00 00 1D 20 0E 14 00 15 
3538.4955    2          18FFE699x     Rx d 8 68 3D 07 14 0E 01 57 25 
3538.4961    2          10FFE597x     Rx d 8 17 29 FA C8 07 14 98 3A 
3538.4966    2          10FFE497x     Rx d 8 8F 00 00 00 02 00 00 72 
3538.4972    2          18FFE899x     Rx d 8 00 00 22 20 0E 14 00 15 
3538.4868    1          0CF00400x     Rx d 8 11 80 81 78 16 00 00 81 
3538.4873    1          18FF20EFx     Rx d 8 F1 81 3C 0B 7D EF 00 4F 
3538.4879    1          18FF7097x     Rx d 8 00 7D 00 0B E9 49 14 10 
3538.4904    1          0CFF82BCx     Rx d 8 74 CA C0 80 1E FF FF BF 
3538.491     1          0CFF84A0x     Rx d 8 C0 00 C3 00 00 7E 7D 9C 
3538.4916    1          18F0090Bx     Rx d 8 FF FF FF FF FF FF FF 7D 
3538.4921    1          18FA0217x     Rx d 8 FF 00 E3 00 E3 00 F0 00 
3538.4955    1          18FEF117x     Rx d 8 F3 5D 15 CF FF FF FF FF 
3538.4961    1          18FF6597x     Rx d 8 01 00 00 00 00 00 00 00 
3538.4966    1          0CEFEF0Bx     Rx d 8 CC FA 7D FF FF FF FF 74 
3538.4972    1          0CF00203x     Rx d 8 01 80 16 00 00 00 00 00 
3538.4978    1          0CF00400x     Rx d 8 11 80 81 80 16 00 00 81 
3538.4984    1          18FF20EFx     Rx d 8 F1 81 40 0B 7D EF 00 4F 
3538.4989    1          0C040B97x     Rx d 8 7E 7D CC 00 FF FF FF 69 
3538.4995    1          18FF8CA9x     Rx d 8 00 00 00 00 00 00 00 00 
3538.5001    1          18FEDFEFx     Rx d 8 7D 00 00 00 7D 00 00 00 
3538.5007    1          18F0090Bx     Rx d 8 FF FF FF FF FF FF FF 7D 
3538.5025    1          08FE6E0Bx     Rx d 8 70 15 1E 15 3A 15 32 15 
3538.5055    2          18FFE699x     Rx d 8 67 3D 0C 14 0D 01 57 35 
3538.5061    2          10FFE597x     Rx d 8 17 39 FA C8 07 14 98 3A 
3538.5066    2          10F01797x     Rx d 8 0B 68 3D 07 14 00 00 00 
3538.5072    2          18FFE899x     Rx d 8 00 00 1D 20 0E 14 00 15 
3538.5155    2          18FFE699x     Rx d 8 67 3D 08 14 0A 01 57 45 
3538.5161    2          10FFE597x     Rx d 8 17 49 FA C8 02 14 98 3A 
3538.5166    2          18FFE899x     Rx d 8 00 00 1B 20 0E 14 00 15 
3538.5031    1          0CFF83AAx     Rx d 8 FF 75 ED 75 74 D3 01 D4 
3538.5056    1          0CF00203x     Rx d 8 01 80 16 00 00 00 00 00 
3538.5062    1          18FFEB97x     Rx d 8 68 3D 68 3D 00 00 00 00 
3538.5067    1          0CF00400x     Rx d 8 11 7F 81 80 16 00 00 81 
3538.5073    1          0CFE6CEEx     Rx d 8 FF FF FF FF FF FF 5D 15 
3538.5079    1          0CFE6C17x     Rx d 8 FF FF FF FF FF FF 5D 15 
3538.5084    1          18FF20EFx     Rx d 8 F1 81 40 0B 7D EF 00 4F 
3538.509     1          18FA0117x     Rx d 8 10 00 F0 C3 0F FF FF FF 
3538.5096    1          18FF7097x     Rx d 8 00 7D 00 0B E9 49 14 30 
3538.5101    1          0CF00300x     Rx d 8 00 05 00 00 00 00 00 00 
3538.5107    1          0CFF82BCx     Rx d 8 74 CD C0 80 1E FF FF CF 
3538.5113    1          0CFF84A0x     Rx d 8 C0 00 C3 00 00 7E 7D AD 
3538.5119    1          18F0090Bx     Rx d 8 FF FF FF FF FF FF FF 7D 
3538.5124    1          18FFC7BCx     Rx d 8 00 C9 01 F6 00 28 28 00 
3538.513     1          18FEBF0Bx     Rx d 8 46 15 7E 7C 7D 7D FF FF 
3538.5136    1          18FFC8A0x     Rx d 8 01 10 FF FF 00 FF FF FF 
3538.5142    1          18FFC9A0x     Rx d 8 C3 FB C8 FF FF FF FF FF 
3538.5156    1          0CF00203x     Rx d 8 01 78 16 00 00 00 00 00 
3538.5162    1          18FFEA97x     Rx d 8 13 08 01 01 00 00 00 00 
3538.5167    1          0CF00400x     Rx d 8 11 7F 81 78 16 00 00 81 
3538.5173    1          18F001ACx     Rx d 8 FF FF FF FF FF FF FF F3 
3538.5179    1          18FF20EFx     Rx d 8 F1 81 3C 0B 7D EF 00 4F 
3538.5184    1          0C040B97x     Rx d 8 7E 7D CC 00 FF FF FF 8A 
3538.519     1          18FF8DACx     Rx d 8 00 0A 4A 00 00 00 00 00 
3538.5196    1          18FEF121x     Rx d 8 FF FF FF FF 00 FF FF FF 
3538.5202    1          18FFA091x     Rx d 8 A0 F0 30 FC FF FF FF 46 
3538.5207    1          18F0090Bx     Rx d 8 FF FF FF FF FF FF FF 7D 
3538.5225    1          08FE6E0Bx     Rx d 8 4C 15 36 15 3A 15 42 15 
3538.5231    1          0CFF83AAx     Rx d 8 FF 75 FE 75 74 D7 01 E4 
3538.5256    1          0CF00203x     Rx d 8 01 78 16 00 00 00 00 00 
3538.523     2          10FFECF4x     Rx d 8 2C 34 E9 7D C6 B3 DD E3 
3538.5236    2          10FFF5F4x     Rx d 8 05 08 7D 8B 00 00 00 00 
3538.5242    2          18FFE398x     Rx d 8 0F 00 1D 94 0C 00 5F 20 
3538.5252    2          18FFC698x     Rx d 8 02 00 02 00 00 00 00 00 
3538.5258    2          10FFE597x     Rx d 8 17 59 FA C8 FE 13 98 3A 
3538.5263    2          10F01797x     Rx d 8 0B 67 3D 08 14 00 00 00 
3538.5269    2          18F0089Ex     Rx d 8 85 44 88 07 4B 64 00 60 
3538.5274    2          18FFE899x     Rx d 8 00 00 1E 20 0D 14 00 15 
3538.528     2          18FFE699x     Rx d 8 68 3D 04 14 0C 01 57 55 
3538.5285    2          18FFF298x     Rx d 8 1D 14 14 14 00 01 01 E3 
3538.5339    2          10FFF6F4x     Rx d 8 40 00 01 00 00 00 00 3B 
3538.5355    2          18FFE699x     Rx d 8 67 3D 0D 14 0E 01 57 65 
3538.5361    2          10FFE597x     Rx d 8 17 69 FA C8 06 14 98 3A 
3538.5366    2          18FFE899x     Rx d 8 00 00 1E 20 0E 14 00 15 
3538.5455    2          18FFE699x     Rx d 8 67 3D 09 14 0A 01 57 75 
3538.5461    2          18FF3197x     Rx d 8 7C 02 7B 02 F3 01 F3 01 
3538.5466    2          10FFE597x     Rx d 8 17 79 FA C8 07 14 98 3A 
3538.5472    2          10F01797x     Rx d 8 0B 67 3D 0D 14 00 00 00 
3538.5478    2          10FFE497x     Rx d 8 8F 00 00 00 02 00 00 77 
3538.5483    2          18FFE899x     Rx d 8 00 00 1A 20 0E 14 00 15 
3538.5262    1          18FF2997x     Rx d 8 02 2F 02 17 00 E2 00 00 
3538.5267    1          0CF00400x     Rx d 8 11 7F 81 78 16 00 00 81 
3538.5273    1          18FF20EFx     Rx d 8 F1 81 3C 0B 7D EF 00 4F 
3538.5278    1          18FF7097x     Rx d 8 00 7D 00 0B E9 4A 14 50 
3538.5304    1          0CFF82BCx     Rx d 8 74 D1 C0 80 1E FF FF DF 
3538.531     1          0CFF84A0x     Rx d 8 C0 00 C3 00 00 7E 7D BE 
3538.5316    1          18F0090Bx     Rx d 8 FF FF FF FF FF FF FF 7D 
3538.5356    1          0CF00203x     Rx d 8 01 78 16 00 00 00 00 00 
3538.5362    1          0CF00400x     Rx d 8 11 80 81 78 16 00 00 81 
3538.5367    1          18FF20EFx     Rx d 8 F1 81 3C 0B 7D EF 00 4F 
3538.5373    1          0C040B97x     Rx d 8 7E 7D CC 00 FF FF FF 9B 
3538.5406    1          18F0090Bx     Rx d 8 FF FF FF FF FF FF FF 7D 
3538.5425    1          08FE6E0Bx     Rx d 8 42 15 42 15 38 15 38 15 
3538.5431    1          0CFF83AAx     Rx d 8 FF 75 06 76 74 DB 01 F4 
3538.5456    1          0CF00203x     Rx d 8 01 78 16 00 00 00 00 00 
3538.5462    1          18FA0517x     Rx d 8 01 00 30 00 40 00 10 81 
3538.5467    1          18FEA297x     Rx d 8 00 24 2C 03 F0 0A 00 28 
3538.5473    1          0CF00400x     Rx d 8 11 80 81 78 16 00 00 81 
3538.5479    1          18FF20EFx     Rx d 8 F1 81 3C 0B 7D EF 00 4F 
3538.5484    1          18FF7097x     Rx d 8 00 7D 00 0B E9 4A 14 70 
3538.549     1          18FF8CA9x     Rx d 8 00 00 00 00 00 00 00 00 
3538.5504    1          0CFF82BCx     Rx d 8 74 D4 C0 80 1E FF FF EF 
3538.551     1          0CFF84A0x     Rx d 8 C0 00 C3 00 00 7E 7D CF 
3538.5555    2          18FFE699x     Rx d 8 67 3D FF 13 09 01 57 85 
3538.5561    2          18FF3097x     Rx d 8 D1 00 10 00 00 00 00 00 
3538.5567    2          10FFE597x     Rx d 8 17 89 FA C8 07 14 98 3A 
3538.5572    2          18FFE899x     Rx d 8 00 00 1C 20 0E 14 00 15 
3538.5656    2          18FFE699x     Rx d 8 68 3D FE 13 0C 01 57 95 
3538.5661    2          10FFE597x     Rx d 8 17 99 FA C8 07 14 98 3A 
3538.5667    2          10F01797x     Rx d 8 0B 67 3D FF 13 00 00 00 
3538.5672    2          18FFE899x     Rx d 8 00 00 20 20 0E 14 00 15 
3538.5738    2          10FFF5F4x     Rx d 8 05 08 7D 8B 00 00 00 00 
3538.5744    2          18FFE398x     Rx d 8 0F 00 1B 94 0C 00 5F 30 
3538.575     2          18FFC698x     Rx d 8 1E 00 35 00 00 00 00 00 
3538.5756    2          10FFE597x     Rx d 8 17 A9 FA C8 07 14 98 3A 
3538.5761    2          18FFE699x     Rx d 8 67 3D 10 14 0C 01 57 A5 
3538.5767    2          18FF5081x     Rx d 8 3D 33 A4 36 C7 DB 54 D2 
3538.5773    2          18FF00EFx     Rx d 8 01 00 00 00 00 00 00 00 
3538.5778    2          18FFE899x     Rx d 8 00 00 1B 20 0E 14 00 15 
3538.5784    2          18FFF298x     Rx d 8 1B 14 0F 14 00 01 01 E4 
3538.5515    1          18F0090Bx     Rx d 8 FF FF FF FF FF FF FF 7D 
3538.5556    1          0CF00203x     Rx d 8 01 78 16 00 00 00 00 00 
3538.5562    1          18F00503x     Rx d 8 7E E8 03 7E 00 00 00 00 
3538.5567    1          0CF00400x     Rx d 8 11 80 81 78 16 00 00 81 
3538.5573    1          18FA0517x     Rx d 8 02 CC 0F FD 0C F3 FF D8 
3538.5579    1          0CFE6CEEx     Rx d 8 FF FF FF FF FF FF 5D 15 
3538.5584    1          0CFE6C17x     Rx d 8 FF FF FF FF FF FF 5D 15 
3538.559     1          18FA0117x     Rx d 8 10 00 F0 C3 0F FF FF FF 
3538.5595    1          18FF20EFx     Rx d 8 F1 81 3C 0B 7D EF 00 4F 
3538.5601    1          0C040B97x     Rx d 8 7E 7D CC 00 FF FF FF AC 
3538.5607    1          0C00000Bx     Rx d 8 30 FF FF FA FF FF FF 25 
3538.5613    1          0CF00300x     Rx d 8 00 07 00 00 00 00 00 00 
3538.5619    1          18F0090Bx     Rx d 8 FF FF FF FF FF FF FF 7D 
3538.5624    1          18FFC7BCx     Rx d 8 00 C9 01 F6 00 28 28 00 
3538.563     1          08FE6E0Bx     Rx d 8 3E 15 40 15 32 15 36 15 
3538.5635    1          0CFF83AAx     Rx d 8 FF 75 0F 76 74 DF 01 04 
3538.5641    1          18FEBF0Bx     Rx d 8 3F 15 7D 7D 7D 7D FF FF 
3538.5647    1          18F0010Bx     Rx d 8 00 00 C3 FF FF 01 FF F3 
3538.5656    1          0CF00203x     Rx d 8 01 78 16 00 00 00 00 00 
3538.5662    1          18FEF100x     Rx d 8 00 4A 14 00 00 00 00 00 
3538.5668    1          0CF00400x     Rx d 8 11 7F 81 78 16 00 00 81 
3538.5673    1          18FA0517x     Rx d 8 03 FF FF FF FF FF FF FD 
3538.5679    1          18FE4F0Bx     Rx d 8 FF FF FF FF FF FF FF FF 
3538.5685    1          18FF20EFx     Rx d 8 F1 81 3C 0B 7D EF 00 4F 
3538.569     1          18FEAD0Bx     Rx d 8 00 00 00 00 FE FE FF FF 
3538.5696    1          18FF7097x     Rx d 8 00 7D 00 0A E9 4A 14 90 
3538.5704    1          0CFF82BCx     Rx d 8 74 D8 C0 80 1E FF FF FF 
3538.571     1          0CFF84A0x     Rx d 8 C0 00 C3 00 00 7E 7D D0 
3538.5716    1          18F0090Bx     Rx d 8 FF FF FF FF FF FF FF 7D 
3538.5756    1          0CF00203x     Rx d 8 01 80 16 00 00 00 00 00 
3538.5762    1          18FE4A03x     Rx d 8 00 01 00 00 00 00 00 00 
3538.5768    1          0CF00400x     Rx d 8 11 80 81 80 16 00 00 81 
3538.5773    1          18FDC40Bx     Rx d 8 00 00 64 F3 FF FF FF FF 
3538.5779    1          18FF20EFx     Rx d 8 F1 81 40 0B 7D EF 00 4F 
3538.5785    1          0C040B97x     Rx d 8 7E 7D CC 00 FF FF FF BD 
3538.5806    1          18F0090Bx     Rx d 8 FF FF FF FF FF FF FF 7D 
3538.5826    1          08FE6E0Bx     Rx d 8 3C 15 42 15 28 15 38 15 
3538.5825    2          10FFF6F4x     Rx d 8 40 00 01 00 00 00 00 3C 
3538.5856    2          10FFE597x     Rx d 8 17 B9 FA C8 07 14 98 3A 
3538.5861    2          10F01797x     Rx d 8 0B 68 3D FE 13 00 00 00 
3538.5867    2          18FFE699x     Rx d 8 67 3D 0A 14 09 01 57 B5 
3538.5872    2          18FFE899x     Rx d 8 00 00 1B 20 0E 14 00 15 
3538.5956    2          10FFE597x     Rx d 8 17 C9 FA C8 07 14 98 3A 
3538.5831    1          0CFF83AAx     Rx d 8 FF 75 15 76 74 E3 01 14 
3538.5856    1          0CF00203x     Rx d 8 01 80 16 00 00 00 00 00 
3538.5862    1          18FFFE97x     Rx d 8 00 00 00 00 00 00 00 00 
3538.5868    1          0CF00400x     Rx d 8 11 7F 81 80 16 00 00 81 
3538.5873    1          18FF20EFx     Rx d 8 F1 81 40 0B 7D EF 00 4F 
3538.5879    1          18FF7097x     Rx d 8 00 7D 00 0A E9 4A 14 B0 
3538.5904    1          0CFF82BCx     Rx d 8 74 DC C0 80 1E FF FF 0F 
3538.591     1          0CFF84A0x     Rx d 8 C0 00 C3 00 00 7E 7D E1 
3538.5916    1          18F0090Bx     Rx d 8 FF FF FF FF FF FF FF 7D 
3538.5956    1          0CF00203x     Rx d 8 01 78 16 00 00 00 00 00 
3538.5962    1          18FF6597x     Rx d 8 01 00 00 00 00 00 00 00 
3538.5968    1          0CEFEF0Bx     Rx d 8 CC FA 7D FF FF FF FF 05 
3538.5973    1          0CF00400x     Rx d 8 11 80 81 78 16 00 00 81 
3538.5979    1          18FF20EFx     Rx d 8 F1 81 3C 0B 7D EF 00 4F 
3538.5984    1          0C040B97x     Rx d 8 7E 7D CC 00 FF FF FF CE 
3538.599     1          18FEF117x     Rx d 8 F3 5D 15 CF FF FF FF FF 
3538.5961    2          10FFE497x     Rx d 8 8F 00 00 00 02 00 00 7C 
3538.5967    2          18FFE699x     Rx d 8 67 3D FF 13 0A 01 57 C5 
3538.5973    2          18FFE899x     Rx d 8 00 00 1F 20 0E 14 00 15 
3538.6056    2          10FFE597x     Rx d 8 17 D9 FA C8 07 14 98 3A 
3538.6061    2          10F00697x     Rx d 8 56 60 64 56 00 00 00 05 
3538.6067    2          10F01797x     Rx d 8 0B 67 3D 0A 14 00 00 00 
3538.6072    2          18FFE699x     Rx d 8 68 3D 03 14 0D 01 57 D5 
3538.6078    2          18FFE899x     Rx d 8 00 00 21 20 0E 14 00 15 
3538.5996    1          18FF8CA9x     Rx d 8 00 00 00 00 00 00 00 00 
3538.6006    1          18F0090Bx     Rx d 8 FF FF FF FF FF FF FF 7D 
3538.6026    1          08FE6E0Bx     Rx d 8 40 15 5C 15 30 15 3A 15 
3538.6031    1          0CFF83AAx     Rx d 8 FF 75 1E 76 74 E6 01 24 
3538.6056    1          0CF00203x     Rx d 8 01 78 16 00 00 00 00 00 
3538.6062    1          0CFE6CEEx     Rx d 8 FF FF FF FF FF FF 5D 15 
3538.6067    1          18FF65ACx     Rx d 8 69 00 59 00 00 00 FF FF 
3538.6073    1          0CFE6C17x     Rx d 8 FF FF FF FF FF FF 5D 15 
3538.6079    1          18FA0117x     Rx d 8 10 00 F0 C3 0F FF FF FF 
3538.6084    1          18FFEB97x     Rx d 8 67 3D 67 3D 00 00 00 00 
3538.609     1          0CF00400x     Rx d 8 11 80 81 78 16 00 00 81 
3538.6095    1          18FF20EFx     Rx d 8 F1 81 3C 0B 7D EF 00 4F 
3538.6101    1          18FF7097x     Rx d 8 00 7D 00 0B E9 4B 14 D0 
3538.6107    1          0CF00300x     Rx d 8 00 07 00 00 00 00 00 00 
3538.6113    1          0CFF82BCx     Rx d 8 74 E0 C0 80 1E FF FF 1F 
3538.6118    1          0CFF84A0x     Rx d 8 C0 00 C3 00 00 7E 7D F2 
3538.6124    1          18F0090Bx     Rx d 8 FF FF FF FF FF FF FF 7D 
3538.613     1          18FEBF0Bx     Rx d 8 5D 15 7B 7F 7B 7C FF FF 
3538.6135    1          18FFC7BCx     Rx d 8 00 C9 01 F6 00 28 28 00 
3538.6141    1          18FFC8A0x     Rx d 8 01 10 FF FF 00 FF FF FF 
3538.6147    1          18FFC9A0x     Rx d 8 C3 FB C8 FF FF FF FF FF 
3538.6156    1          0CF00203x     Rx d 8 01 78 16 00 00 00 00 00 
3538.6162    1          18FFEA97x     Rx d 8 13 08 01 01 00 00 00 00 
3538.6167    1          0CF00400x     Rx d 8 11 80 81 78 16 00 00 81 
3538.6173    1          18F001ACx     Rx d 8 FF FF FF FF FF FF FF F3 
3538.6179    1          18FF20EFx     Rx d 8 F1 81 3C 0B 7D EF 00 4F 
3538.6184    1          0C040B97x     Rx d 8 7E 7D CC 00 FF FF FF DF 
3538.6156    2          10FFE597x     Rx d 8 17 E9 FA C8 07 14 98 3A 
3538.6161    2          18FFE699x     Rx d 8 67 3D 07 14 0A 01 57 E5 
3538.6167    2          18FFE899x     Rx d 8 00 00 1A 20 0E 14 00 15 
3538.623     2          10FFF5F4x     Rx d 8 05 08 7D 8B 00 00 00 00 
3538.6245    2          18FFE398x     Rx d 8 0F 00 1F 94 0C 00 5F 40 
3538.6254    2          18FFC698x     Rx d 8 04 00 02 00 00 00 00 00 
3538.6259    2          10FFE597x     Rx d 8 17 F9 FA C8 07 14 98 3A 
3538.6265    2          10F01797x     Rx d 8 0B 68 3D 03 14 00 00 00 
3538.6271    2          18FFE899x     Rx d 8 00 00 1B 20 0E 14 00 15 
3538.6276    2          18F0089Ex     Rx d 8 86 41 88 07 4B 64 00 60 
3538.6282    2          18FFE699x     Rx d 8 67 3D 05 14 09 01 57 F5 
3538.6287    2          18FFF298x     Rx d 8 1F 14 0D 14 00 01 01 E5 
3538.6294    2          10FFF39Fx     Rx d 8 02 50 C3 03 02 00 00 AF 
3538.6325    2          18FFEDF4x     Rx d 8 F2 0C EC 0C 80 02 62 02 
3538.6331    2          10FFF6F4x     Rx d 8 40 00 01 00 00 00 00 3D 
3538.6356    2          10FFE597x     Rx d 8 17 09 FA C8 07 14 98 3A 
3538.6361    2          18FFE699x     Rx d 8 68 3D 05 14 0A 01 57 05 
3538.6367    2          18FFE899x     Rx d 8 00 00 1F 20 0E 14 00 15 
3538.6192    1          18FEF121x     Rx d 8 FF FF FF FF 00 FF FF FF 
3538.6198    1          18FFA091x     Rx d 8 A0 F0 30 FC FF FF FF 46 
3538.6206    1          18F0090Bx     Rx d 8 FF FF FF FF FF FF FF 7D 
3538.6226    1          08FE6E0Bx     Rx d 8 3C 15 6C 15 38 15 40 15 
3538.6231    1          0CFF83AAx     Rx d 8 FF 75 29 76 74 EA 01 34 
3538.6256    1          0CF00203x     Rx d 8 01 80 16 00 00 00 00 00 
3538.6262    1          18FF2997x     Rx d 8 02 2E 03 17 00 E3 00 00 
3538.6267    1          0CF00400x     Rx d 8 11 80 81 80 16 00 00 81 
3538.6273    1          18FF20EFx     Rx d 8 F1 81 40 0B 7D EF 00 4F 
3538.6278    1          18FF7097x     Rx d 8 00 7D 00 0A E9 4A 14 F0 
3538.6304    1          0CFF82BCx     Rx d 8 74 E4 C0 80 1E FF FF 2F 
3538.631     1          0CFF84A0x     Rx d 8 C0 00 C3 00 00 7E 7D 03 
3538.6316    1          18F0090Bx     Rx d 8 FF FF FF FF FF FF FF 7D 
3538.6356    1          0CF00203x     Rx d 8 01 78 16 00 00 00 00 00 
3538.6362    1          0CF00400x     Rx d 8 11 80 81 78 16 00 00 81 
3538.6367    1          18FF20EFx     Rx d 8 F1 81 3C 0B 7D EF 00 4F 
3538.6373    1          0C040B97x     Rx d 8 7E 7D CC 00 FF FF FF D0 
3538.6406    1          18F0090Bx     Rx d 8 FF FF FF FF FF FF FF 7D 
3538.6426    1          08FE6E0Bx     Rx d 8 06 15 56 15 38 15 34 15 
3538.6431    1          0CFF83AAx     Rx d 8 FF 75 2C 76 74 EC 01 44 
3538.6456    1          0CF00203x     Rx d 8 01 78 16 00 00 00 00 00 
3538.6462    1          18FEA297x     Rx d 8 00 24 2C 03 F0 0A 00 28 
3538.6467    1          0CF00400x     Rx d 8 11 80 81 78 16 00 00 81 
3538.6473    1          18FF20EFx     Rx d 8 F1 81 3C 0B 7D EF 00 4F 
3538.6479    1          18FF7097x     Rx d 8 00 7D 00 0B E9 4B 14 10 
3538.6425    2          18FFEEF4x     Rx d 8 B5 0C EB 09 62 02 00 00 
3538.6456    2          10FFE597x     Rx d 8 17 19 FA C8 07 14 98 3A 
3538.6461    2          18FF3197x     Rx d 8 7C 02 7B 02 F3 01 F3 01 
3538.6467    2          10F01797x     Rx d 8 0B 67 3D 05 14 00 00 00 
3538.6473    2          10FFE497x     Rx d 8 8F 00 00 00 02 00 00 81 
3538.6478    2          18FFE899x     Rx d 8 00 00 1C 20 0E 14 00 15 
3538.6484    2          18FFE699x     Rx d 8 68 3D 0C 14 0C 01 57 15 
3538.6525    2          18F113F4x     Rx d 8 2B F2 0C 11 EC 0C 01 02 
3538.6556    2          18FE8097x     Rx d 8 03 00 01 00 00 00 00 00 
3538.6562    2          18FF3097x     Rx d 8 D1 00 10 00 00 00 00 00 
3538.6567    2          10FFE597x     Rx d 8 17 29 FA C8 07 14 98 3A 
3538.6573    2          18FFE899x     Rx d 8 00 00 18 20 0E 14 00 15 
3538.6578    2          18FFE699x     Rx d 8 67 3D 04 14 08 01 57 25 
3538.6625    2          18F114F4x     Rx d 8 06 40 0D 3D 01 01 FF FF 
3538.6656    2          10FFE597x     Rx d 8 17 39 FA C8 07 14 98 3A 
3538.6661    2          10F01797x     Rx d 8 0B 68 3D 0C 14 00 00 00 
3538.6667    2          18FFE899x     Rx d 8 00 00 1A 20 0E 14 00 15 
3538.6672    2          18FFE699x     Rx d 8 69 3D 01 14 09 01 57 35 
3538.6734    2          18FFF0F4x     Rx d 8 00 00 00 00 00 00 00 00 
3538.6484    1          18FF8CA9x     Rx d 8 00 00 00 00 00 00 00 00 
3538.6504    1          0CFF82BCx     Rx d 8 74 E7 C0 80 1E FF FF 3F 
3538.651     1          0CFF84A0x     Rx d 8 C0 00 C3 00 00 7E 7D 14 
3538.6516    1          18F0090Bx     Rx d 8 FF FF FF FF FF FF FF 7D 
3538.6556    1          0CF00203x     Rx d 8 01 80 16 00 00 00 00 00 
3538.6562    1          0CFE6CEEx     Rx d 8 FF FF FF FF FF FF 5D 15 
3538.6567    1          18F00503x     Rx d 8 7E E8 03 7E 00 00 00 00 
3538.6573    1          0CF00400x     Rx d 8 11 80 81 80 16 00 00 81 
3538.6579    1          0CFE6C17x     Rx d 8 FF FF FF FF FF FF 5D 15 
3538.6585    1          18FA0117x     Rx d 8 10 00 F0 C3 0F FF FF FF 
3538.659     1          18FF20EFx     Rx d 8 F1 81 40 0B 7D EF 00 4F 
3538.6596    1          0C040B97x     Rx d 8 7E 7D CC 00 FF FF FF E1 
3538.6602    1          0CF00300x     Rx d 8 00 07 00 00 00 00 00 00 
3538.6607    1          0C00000Bx     Rx d 8 30 FF FF FA FF FF FF 36 
3538.6613    1          18F0090Bx     Rx d 8 FF FF FF FF FF FF FF 7D 
3538.6619    1          18FFC7BCx     Rx d 8 00 C9 01 F6 00 28 28 00 
3538.6626    1          08FE6E0Bx     Rx d 8 2A 15 42 15 3A 15 3C 15 
3538.6631    1          18FEBF0Bx     Rx d 8 36 15 7D 7D 7D 7D FF FF 
3538.6637    1          0CFF83AAx     Rx d 8 FF 75 33 76 74 EF 01 54 
3538.6646    1          18F0010Bx     Rx d 8 00 00 C3 FF FF 01 FF F3 
3538.6656    1          0CF00203x     Rx d 8 01 80 16 00 00 00 00 00 
3538.6662    1          18FEF100x     Rx d 8 00 4B 14 00 00 00 00 00 
3538.6668    1          0CF00400x     Rx d 8 11 80 81 80 16 00 00 81 
3538.6673    1          18FE4F0Bx     Rx d 8 FF FF FF FF FF FF FF FF 
3538.6679    1          18FF20EFx     Rx d 8 F1 81 40 0B 7D EF 00 4F 
3538.6685    1          18FF7097x     Rx d 8 00 7D 00 0B E9 4B 14 30 
3538.669     1          18FEAD0Bx     Rx d 8 00 00 00 00 FE FE FF FF 
3538.6704    1          0CFF82BCx     Rx d 8 74 EA C0 80 1E FF FF 4F 
3538.671     1          0CFF84A0x     Rx d 8 C0 00 C3 00 00 7E 7D 25 
3538.6716    1          18F0090Bx     Rx d 8 FF FF FF FF FF FF FF 7D 
3538.6756    1          0CF00203x     Rx d 8 01 78 16 00 00 00 00 00 
3538.6762    1          18FA0617x     Rx d 8 30 00 FF FF FF FF FF FF 
3538.6768    1          18FDC40Bx     Rx d 8 00 00 64 F3 FF FF FF FF 
3538.6773    1          18FE4A03x     Rx d 8 00 01 00 00 00 00 00 00 
3538.6779    1          0CF00400x     Rx d 8 11 80 81 78 16 00 00 81 
3538.6785    1          18FF20EFx     Rx d 8 F1 81 3C 0B 7D EF 00 4F 
3538.6739    2          10FFF5F4x     Rx d 8 05 08 7D 8B 00 00 00 00 
3538.6751    2          18FFE398x     Rx d 8 0F 00 1B 94 0C 00 5F 50 
3538.6757    2          10FFE597x     Rx d 8 17 49 FA C8 07 14 98 3A 
3538.6763    2          18FFC698x     Rx d 8 04 00 35 00 00 00 00 00 
3538.6768    2          18FFE699x     Rx d 8 69 3D 0A 14 0C 01 57 45 
3538.6774    2          18FF5081x     Rx d 8 3D 33 A4 36 C7 DB 54 D2 
3538.678     2          18FF00EFx     Rx d 8 01 00 00 00 00 00 00 00 
3538.6785    2          18FFE899x     Rx d 8 00 00 1F 20 0E 14 00 15 
3538.6791    2          18FFF298x     Rx d 8 1B 14 0A 14 00 01 01 E6 
3538.6825    2          18FF3AF4x     Rx d 8 CC 06 02 00 41 40 D2 D8 
3538.6831    2          10FFF6F4x     Rx d 8 40 00 01 00 00 00 00 3E 
3538.6853    2          18FFC13Ax     Rx d 8 04 3D 3E CE B2 00 00 00 
3538.6858    2          10FFE597x     Rx d 8 17 59 FA C8 07 14 98 3A 
3538.6864    2          10F01797x     Rx d 8 0B 69 3D 01 14 00 00 00 
3538.687     2          18FFE899x     Rx d 8 00 00 1B 20 0D 14 00 15 
3538.6875    2          18FFE699x     Rx d 8 68 3D 0E 14 0A 01 57 55 
3538.6894    2          18F00A9Ex     Rx d 8 82 48 27 02 51 28 00 CA 
3538.6956    2          10FFE597x     Rx d 8 17 69 FA C8 07 14 98 3A 
3538.6961    2          10FFE497x     Rx d 8 8F 00 00 00 02 00 00 86 
3538.6967    2          18FFE899x     Rx d 8 00 00 1A 20 0D 14 00 15 
3538.6972    2          18FFE699x     Rx d 8 69 3D 05 14 08 01 57 65 
3538.679     1          0C040B97x     Rx d 8 7E 7D CC 00 FF FF FF F2 
3538.6806    1          18F0090Bx     Rx d 8 FF FF FF FF FF FF FF 7D 
3538.6826    1          08FE6E0Bx     Rx d 8 38 15 3A 15 42 15 40 15 
3538.6831    1          0CFF83AAx     Rx d 8 FF 75 37 76 74 F0 01 64 
3538.6856    1          0CF00203x     Rx d 8 01 88 16 00 00 00 00 00 
3538.6862    1          18FFFE97x     Rx d 8 00 00 00 00 00 00 00 00 
3538.6868    1          0CF00400x     Rx d 8 11 80 81 88 16 00 00 81 

3538.6873    1          18FF20EFx     Rx d 8 F1 81 44 0B 7D EF 00 4F 
3538.6879    1          18FF7097x     Rx d 8 00 7D 00 0A E9 4B 14 50 
3538.6904    1          0CFF82BCx     Rx d 8 74 ED C0 80 1E FF FF 5F 
3538.691     1          0CFF84A0x     Rx d 8 C0 00 C3 00 00 7E 7D 36 
3538.6916    1          18F0090Bx     Rx d 8 FF FF FF FF FF FF FF 7D 
3538.6956    1          0CF00203x     Rx d 8 01 88 16 00 00 00 00 00 
3538.6962    1          18FF6597x     Rx d 8 01 00 00 00 00 00 00 00 
3538.6968    1          0CEFEF0Bx     Rx d 8 CC FA 7D FF FF FF FF 16 
3538.6973    1          0CF00400x     Rx d 8 11 80 81 88 16 00 00 81 
3538.6979    1          18FF20EFx     Rx d 8 F1 81 44 0B 7D EF 00 4F 
3538.6985    1          0C040B97x     Rx d 8 7E 7D CC 00 FF FF FF 03 
3538.699     1          18FEF117x     Rx d 8 F3 55 15 CF FF FF FF FF 
3538.6996    1          18FF8CA9x     Rx d 8 00 00 00 00 00 00 00 00 
3538.7006    1          18F0090Bx     Rx d 8 FF FF FF FF FF FF FF 7D 
3538.7026    1          08FE6E0Bx     Rx d 8 4A 15 38 15 4C 15 3E 15 
3538.7031    1          0CFF83AAx     Rx d 8 FF 75 3B 76 74 F2 01 74 
3538.7056    1          0CF00203x     Rx d 8 01 80 16 00 00 00 00 00 
3538.7062    1          0CFE6CEEx     Rx d 8 FF FF FF FF FF FF 55 15 
3538.7067    1          18FFEB97x     Rx d 8 68 3D 68 3D 00 00 00 00 
3538.7073    1          0CF00400x     Rx d 8 11 80 81 80 16 00 00 81 
3538.7079    1          0CFE6C17x     Rx d 8 FF FF FF FF FF FF 55 15 
3538.7085    1          18FA0117x     Rx d 8 10 00 F0 C3 0F FF FF FF 
3538.709     1          18FF20EFx     Rx d 8 F1 81 40 0B 7D EF 00 4F 
3538.7096    1          18FF7097x     Rx d 8 00 7D 00 0B E9 4D 14 70 
3538.7102    1          0CF00300x     Rx d 8 00 07 00 00 00 00 00 00 
3538.7107    1          0CFF82BCx     Rx d 8 74 EF C0 80 1E FF FF 6F 
3538.7056    2          10FFE597x     Rx d 8 17 79 FA C8 07 14 98 3A 
3538.7061    2          10F01797x     Rx d 8 0B 68 3D 0E 14 00 00 00 
3538.7067    2          18FFE899x     Rx d 8 00 00 1D 20 0D 14 00 15 
3538.7072    2          18FFE699x     Rx d 8 6A 3D 00 14 09 01 57 75 
3538.7156    2          10FFE597x     Rx d 8 17 89 FA C8 07 14 98 3A 
3538.7161    2          18FFE699x     Rx d 8 6A 3D 0A 14 0C 01 57 85 
3538.7167    2          18FFE899x     Rx d 8 00 00 1A 20 0D 14 00 15 
3538.7229    2          10FFECF4x     Rx d 8 2C 34 E0 7D C6 B3 DD 83 
3538.7235    2          10FFF5F4x     Rx d 8 05 08 7D 8B 00 00 00 00 
3538.7256    2          10FFE597x     Rx d 8 17 99 FA C8 07 14 98 3A 
3538.7261    2          10F01797x     Rx d 8 0B 6A 3D 00 14 00 00 00 
3538.7267    2          18FFE398x     Rx d 8 0F 00 1D 94 0C 00 5F 60 
3538.7273    2          18FFE899x     Rx d 8 00 00 1A 20 0D 14 00 15 
3538.7278    2          18FFC698x     Rx d 8 04 00 00 00 00 00 00 00 
3538.7284    2          18FFE699x     Rx d 8 69 3D 08 14 08 01 57 95 
3538.7289    2          18F0089Ex     Rx d 8 87 3A 88 07 4B 64 00 60 
3538.7295    2          18FFF298x     Rx d 8 1D 14 11 14 00 01 01 E7 
3538.7335    2          18F401A8x     Rx d 8 01 1B 00 00 D2 51 00 00 
3538.734     2          10FFF6F4x     Rx d 8 40 00 01 00 00 00 00 3F 
3538.7356    2          10FFE597x     Rx d 8 17 A9 FA C8 07 14 98 3A 
3538.7361    2          18FFE699x     Rx d 8 6A 3D 03 14 08 01 57 A5 
3538.7367    2          18FFE899x     Rx d 8 00 00 1C 20 0D 14 00 15 
3538.7456    2          10FFE597x     Rx d 8 17 B9 FA C8 07 14 98 3A 
3538.7461    2          18FF3197x     Rx d 8 7C 02 7B 02 F3 01 F3 01 
3538.7467    2          10F01797x     Rx d 8 0B 69 3D 08 14 00 00 00 
3538.7473    2          10FFE497x     Rx d 8 8F 00 00 00 02 00 00 8B 
3538.7478    2          18FFE899x     Rx d 8 00 00 1E 20 0D 14 00 15 
3538.7484    2          18FFE699x     Rx d 8 6B 3D 01 14 0B 01 57 B5 
3538.7489    2          18FF0B97x     Rx d 8 0A 1D 14 00 00 00 00 8B 
3538.7556    2          10FFE597x     Rx d 8 17 C9 FA C8 07 14 98 3A 
3538.7562    2          18FF3097x     Rx d 8 D1 00 10 00 00 00 00 00 
3538.7567    2          18FFE899x     Rx d 8 00 00 1A 20 0D 14 00 15 
3538.7573    2          18FFE699x     Rx d 8 6A 3D 0A 14 0A 01 57 C5 
3538.7588    2          18FEE097x     Rx d 8 00 00 00 00 50 00 00 00 
3538.7656    2          10FFE597x     Rx d 8 17 D9 FA C8 07 14 98 3A 
3538.7662    2          10F01797x     Rx d 8 0B 6B 3D 01 14 00 00 00 
3538.7667    2          18FFE899x     Rx d 8 00 00 1B 20 0D 14 00 15 
3538.7673    2          18FFE699x     Rx d 8 6A 3D 07 14 08 01 57 D5 
3538.769     2          18FF3297x     Rx d 8 88 28 00 FF 01 00 00 00 
3538.774     2          10FFF5F4x     Rx d 8 05 08 7D 8B 00 00 00 00 
3538.7756    2          10FFE597x     Rx d 8 17 E9 FA C8 07 14 98 3A 
3538.7761    2          18FFE699x     Rx d 8 6B 3D FF 13 09 01 57 E5 
3538.7767    2          18FF5081x     Rx d 8 3D 33 A4 36 C7 DB 54 D2 
3538.7773    2          18FF00EFx     Rx d 8 01 00 00 00 00 00 00 00 
3538.7778    2          18FFE398x     Rx d 8 0F 00 1B 94 0C 00 5F 70 
3538.7784    2          18FFC698x     Rx d 8 25 00 12 00 00 00 00 00 
3538.779     2          18FFE899x     Rx d 8 00 00 1F 20 0D 14 00 15 
3538.7796    2          18FFF298x     Rx d 8 1B 14 0D 14 00 01 01 E8 
3538.7113    1          0CFF84A0x     Rx d 8 C0 00 C3 00 00 7E 7D 47 
3538.7119    1          18F0090Bx     Rx d 8 FF FF FF FF FF FF FF 7D 
3538.7125    1          18FFC7BCx     Rx d 8 00 C9 01 F6 00 28 28 00 
3538.713     1          18FEBF0Bx     Rx d 8 3C 15 7D 7D 7D 7D FF FF 
3538.7136    1          18FFC8A0x     Rx d 8 01 10 FF FF 00 FF FF FF 
3538.7142    1          18FFC9A0x     Rx d 8 C3 FB C8 FF FF FF FF FF 
3538.7156    1          0CF00203x     Rx d 8 01 88 16 00 00 00 00 00 
3538.7162    1          18FFEA97x     Rx d 8 13 08 01 01 00 00 00 00 
3538.7167    1          0CF00400x     Rx d 8 11 80 81 88 16 00 00 81 
3538.7173    1          18F001ACx     Rx d 8 FF FF FF FF FF FF FF F3 
3538.7179    1          18FF20EFx     Rx d 8 F1 81 44 0B 7D EF 00 4F 
3538.7184    1          0C040B97x     Rx d 8 7E 7D CC 00 FF FF FF 14 
3538.719     1          18FF8DACx     Rx d 8 00 0A 4A 00 00 00 00 00 
3538.7196    1          18FEF121x     Rx d 8 FF FF FF FF 00 FF FF FF 
3538.7202    1          18FFA091x     Rx d 8 A0 F0 30 FC FF FF FF 46 
3538.7208    1          18F0090Bx     Rx d 8 FF FF FF FF FF FF FF 7D 
3538.7226    1          08FE6E0Bx     Rx d 8 4C 15 02 15 4A 15 42 15 
3538.7231    1          0CFF83AAx     Rx d 8 FF 75 43 76 74 F3 01 84 
3538.7256    1          0CF00203x     Rx d 8 01 90 16 00 00 00 00 00 
3538.7262    1          18FF2997x     Rx d 8 02 2F 02 18 00 E2 00 00 
3538.7267    1          0CF00400x     Rx d 8 11 7F 81 90 16 00 00 81 
3538.7273    1          18FF20EFx     Rx d 8 F1 81 48 0B 7D EF 00 4F 
3538.7278    1          18FF7097x     Rx d 8 00 7D 00 0A E9 4D 14 90 
3538.7304    1          0CFF82BCx     Rx d 8 74 F0 C0 80 1E FF FF 7F 
3538.731     1          0CFF84A0x     Rx d 8 C0 00 C3 00 00 7E 7D 58 
3538.7316    1          18F0090Bx     Rx d 8 FF FF FF FF FF FF FF 7D 
3538.7321    1          18FECABCx     Rx d 8 FF FF 00 00 00 00 FF FF 
3538.7356    1          0CF00203x     Rx d 8 01 90 16 00 00 00 00 00 
3538.7362    1          0CF00400x     Rx d 8 11 80 81 90 16 00 00 81 
3538.7367    1          18FF20EFx     Rx d 8 F1 81 48 0B 7D EF 00 4F 
3538.7373    1          0C040B97x     Rx d 8 7E 7D CC 00 FF FF FF 25 
3538.7406    1          18F0090Bx     Rx d 8 FF FF FF FF FF FF FF 7D 
3538.7426    1          08FE6E0Bx     Rx d 8 56 15 12 15 4A 15 42 15 
3538.7431    1          0CFF83AAx     Rx d 8 FF 75 49 76 74 F4 01 94 
3538.7456    1          0CF00203x     Rx d 8 01 88 16 00 00 00 00 00 
3538.7462    1          18FEA297x     Rx d 8 00 24 2C 03 F0 0A 00 28 
3538.7468    1          0CF00400x     Rx d 8 11 80 81 88 16 00 00 81 
3538.7473    1          18FF20EFx     Rx d 8 F1 81 44 0B 7D EF 00 4F 
3538.7479    1          18FF7097x     Rx d 8 00 7D 00 0B E9 4F 14 B0 
3538.7485    1          18FF8CA9x     Rx d 8 00 00 00 00 00 00 00 00 
3538.749     1          18FFFB97x     Rx d 8 05 00 00 00 88 13 0A 2C 
3538.7496    1          18FCDC00x     Rx d 8 01 00 00 01 00 00 00 00 
3538.7502    1          18FEDFEFx     Rx d 8 7D 00 00 00 7D 00 00 00 
3538.7508    1          0CFF82BCx     Rx d 8 74 F2 C0 80 1E FF FF 8F 
3538.7513    1          0CFF84A0x     Rx d 8 C0 00 C3 00 00 7E 7D 69 
3538.7519    1          18F0090Bx     Rx d 8 FF FF FF FF FF FF FF 7D 
3538.7556    1          0CFE6CEEx     Rx d 8 FF FF FF FF FF FF 55 15 
3538.7562    1          18F00503x     Rx d 8 7E E8 03 7E 00 00 00 00 
3538.7567    1          0CF00203x     Rx d 8 01 90 16 00 00 00 00 00 
3538.7573    1          0CF00400x     Rx d 8 11 80 81 90 16 00 00 81 
3538.7579    1          0CFE6C17x     Rx d 8 FF FF FF FF FF FF 55 15 
3538.7584    1          18FA0117x     Rx d 8 10 00 F0 C3 0F FF FF FF 
3538.759     1          18FFF897x     Rx d 8 2C 14 E0 7D F1 3E 3D 04 
3538.7596    1          18FF20EFx     Rx d 8 F1 81 48 0B 7D EF 00 4F 
3538.7601    1          0C040B97x     Rx d 8 7E 7D CC 00 FF FF FF 36 
3538.7607    1          0C00000Bx     Rx d 8 30 FF FF FA FF FF FF 47 
3538.7613    1          0CF00300x     Rx d 8 00 07 00 00 00 00 00 00 
3538.7619    1          18F0090Bx     Rx d 8 FF FF FF FF FF FF FF 7D 
3538.7625    1          18FFC7BCx     Rx d 8 00 C9 01 F6 00 28 28 00 
3538.763     1          08FE6E0Bx     Rx d 8 52 15 26 15 4C 15 46 15 
3538.7635    1          0CFF83AAx     Rx d 8 FF 75 4E 76 74 F5 00 A4 
3538.7641    1          18FEBF0Bx     Rx d 8 3C 15 7E 7C 7E 7D FF FF 
3538.7647    1          18F0010Bx     Rx d 8 00 00 C3 FF FF 01 FF F3 
3538.7656    1          0CF00203x     Rx d 8 01 98 16 00 00 00 00 00 
3538.7662    1          18FEF100x     Rx d 8 00 50 14 00 00 00 00 00 
3538.7668    1          0CF00400x     Rx d 8 11 80 81 98 16 00 00 81 
3538.7674    1          18FE4F0Bx     Rx d 8 FF FF FF FF FF FF FF FF 
3538.7679    1          18FF20EFx     Rx d 8 F1 81 4C 0B 7D EF 00 4F 
3538.7685    1          18FF7097x     Rx d 8 00 7D 00 0A E9 50 14 D0 
3538.7691    1          18FEAD0Bx     Rx d 8 00 00 00 00 FE FE FF FF 
3538.7696    1          18FFF797x     Rx d 8 4C 4A 00 00 50 C3 62 02 
3538.7704    1          0CFF82BCx     Rx d 8 74 F3 C0 80 1E FF FF 9F 
3538.771     1          0CFF84A0x     Rx d 8 C0 00 C3 00 00 7E 7D 7A 
3538.7716    1          18F0090Bx     Rx d 8 FF FF FF FF FF FF FF 7D 
3538.7756    1          0CF00203x     Rx d 8 01 90 16 00 00 00 00 00 
3538.7762    1          18FE4A03x     Rx d 8 00 01 00 00 00 00 00 00 
3538.7768    1          0CF00400x     Rx d 8 11 7F 81 90 16 00 00 81 
3538.7773    1          18FDC40Bx     Rx d 8 00 00 64 F3 FF FF FF FF 
3538.7779    1          18FF20EFx     Rx d 8 F1 81 48 0B 7D EF 00 4F 
3538.7785    1          0C040B97x     Rx d 8 7E 7D CC 00 FF FF FF 47 
3538.7806    1          18F0090Bx     Rx d 8 FF FF FF FF FF FF FF 7D 
3538.7826    1          08FE6E0Bx     Rx d 8 4A 15 30 15 4C 15 4C 15 
3538.7826    2          10FFF6F4x     Rx d 8 40 00 01 00 00 00 00 40 
3538.7856    2          10FFE597x     Rx d 8 17 F9 FA C8 07 14 98 3A 
3538.7861    2          10F01797x     Rx d 8 0B 6A 3D 07 14 00 00 00 
3538.7867    2          18FFE899x     Rx d 8 00 00 1F 20 0E 14 00 15 
3538.7873    2          18FFE699x     Rx d 8 6B 3D 03 14 0B 01 57 F5 
3538.7956    2          10FFE597x     Rx d 8 17 09 FA C8 07 14 98 3A 
3538.7961    2          10FFE497x     Rx d 8 8F 00 00 00 02 00 00 90 
3538.7967    2          18FFE899x     Rx d 8 00 00 1B 20 0E 14 00 15 
3538.7973    2          18FFE699x     Rx d 8 6B 3D 0A 14 08 01 57 05 
3538.7831    1          0CFF83AAx     Rx d 8 FF 75 54 76 74 F6 00 B4 
3538.7856    1          0CF00203x     Rx d 8 01 90 16 00 00 00 00 00 
3538.7862    1          18FFFE97x     Rx d 8 00 00 00 00 00 00 00 00 
3538.7868    1          0CF00400x     Rx d 8 11 80 81 90 16 00 00 81 
3538.7873    1          18FF20EFx     Rx d 8 F1 81 48 0B 7D EF 00 4F 
3538.7879    1          18FF7097x     Rx d 8 00 7D 00 0B E9 52 14 F0 
3538.7904    1          0CFF82BCx     Rx d 8 74 F4 C0 80 1E FF FF AF 
3538.791     1          0CFF84A0x     Rx d 8 C0 00 C3 00 00 7E 7D 8B 
3538.7916    1          18F0090Bx     Rx d 8 FF FF FF FF FF FF FF 7D 
3538.7956    1          0CF00203x     Rx d 8 01 98 16 00 00 00 00 00 
3538.7962    1          18FF6597x     Rx d 8 01 00 00 00 00 00 00 00 
3538.7968    1          0CEFEF0Bx     Rx d 8 CC FA 7D FF FF FF FF 27 
3538.7973    1          0CF00400x     Rx d 8 11 80 81 98 16 00 00 81 
3538.7979    1          18FF20EFx     Rx d 8 F1 81 4C 0B 7D EF 00 4F 
3538.7985    1          0C040B97x     Rx d 8 7E 7D CC 00 FF FF FF 58 
3538.799     1          18FEF117x     Rx d 8 F3 6C 15 CF FF FF FF FF 
3538.7996    1          18FF8CA9x     Rx d 8 00 00 00 00 00 00 00 00 
3538.8006    1          18F0090Bx     Rx d 8 FF FF FF FF FF FF FF 7D 
3538.8026    1          08FE6E0Bx     Rx d 8 82 15 38 15 56 15 4E 15 
3538.8032    1          0CFF83AAx     Rx d 8 FF 75 58 76 74 F8 00 C4 
3538.8056    1          0CF00203x     Rx d 8 01 98 16 00 00 00 00 00 
3538.8062    1          0CFE6CEEx     Rx d 8 FF FF FF FF FF FF 6C 15 
3538.8067    1          18FFEB97x     Rx d 8 6B 3D 6B 3D 00 00 00 00 
3538.8073    1          0CF00400x     Rx d 8 11 80 81 98 16 00 00 81 
3538.8056    2          10FFE597x     Rx d 8 17 19 FA C8 07 14 98 3A 
3538.8061    2          10F00697x     Rx d 8 56 60 64 56 00 00 00 05 
3538.8067    2          10F01797x     Rx d 8 0B 6B 3D 03 14 00 00 00 
3538.8072    2          18FFE899x     Rx d 8 00 00 1A 20 0E 14 00 15 
3538.8078    2          18FFE699x     Rx d 8 6C 3D 06 14 06 01 57 15 
3538.8156    2          10FFE597x     Rx d 8 17 29 FA C8 07 14 98 3A 
3538.8161    2          18FFE699x     Rx d 8 6C 3D FD 13 08 01 57 25 
3538.8167    2          18FFE899x     Rx d 8 00 00 1F 20 0E 14 00 15 
3538.8079    1          0CFE6C17x     Rx d 8 FF FF FF FF FF FF 6C 15 
3538.8084    1          18FA0117x     Rx d 8 10 00 F0 C3 0F FF FF FF 
3538.809     1          18FF20EFx     Rx d 8 F1 81 4C 0B 7D EF 00 4F 
3538.8096    1          18FF7097x     Rx d 8 00 7D 00 0A E9 54 14 10 
3538.8102    1          0CF00300x     Rx d 8 00 07 00 00 00 00 00 00 
3538.8107    1          0CFF82BCx     Rx d 8 74 F5 C0 80 1E FF FF BF 
3538.8113    1          0CFF84A0x     Rx d 8 C0 00 C3 00 00 7E 7D 9C 
3538.8119    1          18F0090Bx     Rx d 8 FF FF FF FF FF FF FF 7D 
3538.8125    1          18FFC7BCx     Rx d 8 00 C9 01 F6 00 28 28 00 
3538.813     1          18FEBF0Bx     Rx d 8 56 15 7F 7B 7D 7D FF FF 
3538.8136    1          18FFC8A0x     Rx d 8 01 10 FF FF 00 FF FF FF 
3538.8142    1          18FFC9A0x     Rx d 8 C3 FB C8 FF FF FF FF FF 
3538.8156    1          0CF00203x     Rx d 8 01 98 16 00 00 00 00 00 
3538.8162    1          18FFEA97x     Rx d 8 13 08 01 01 00 00 00 00 
3538.8167    1          0CF00400x     Rx d 8 11 80 81 98 16 00 00 81 
3538.8173    1          18F001ACx     Rx d 8 FF FF FF FF FF FF FF F3 
3538.8179    1          18FF20EFx     Rx d 8 F1 81 4C 0B 7D EF 00 4F 
3538.8185    1          0C040B97x     Rx d 8 7E 7D CC 00 FF FF FF 69 
3538.8192    1          18FEF121x     Rx d 8 FF FF FF FF 00 FF FF FF 
3538.8203    1          18FFA091x     Rx d 8 A0 F0 30 FC FF FF FF 46 
3538.8209    1          18F0090Bx     Rx d 8 FF FF FF FF FF FF FF 7D 
3538.8226    1          08FE6E0Bx     Rx d 8 68 15 4A 15 5C 15 4A 15 
3538.823     2          10FFF5F4x     Rx d 8 05 08 7D 8B 00 00 00 00 
3538.8256    2          10FFE597x     Rx d 8 17 39 FA C8 06 14 98 3A 
3538.8261    2          10F01797x     Rx d 8 0B 6C 3D 06 14 00 00 00 
3538.8267    2          18FFE899x     Rx d 8 00 00 1F 20 0E 14 00 15 
3538.8273    2          18FFE398x     Rx d 8 0F 00 1B 94 0C 00 5F 80 
3538.8279    2          18FFC698x     Rx d 8 06 00 02 00 00 00 00 00 
3538.8284    2          18FFE699x     Rx d 8 6C 3D 07 14 0A 01 57 35 
3538.829     2          18FFF298x     Rx d 8 1B 14 0A 14 00 01 01 E9 
3538.8297    2          18F0099Ex     Rx d 8 80 00 7D 00 49 64 00 00 
3538.8303    2          18F0089Ex     Rx d 8 80 3A 88 07 4B 64 00 60 
3538.8326    2          10FFF6F4x     Rx d 8 40 00 01 00 00 00 00 41 
3538.8356    2          10FFE597x     Rx d 8 17 49 FA C8 06 14 98 3A 
3538.8231    1          0CFF83AAx     Rx d 8 FF 75 5D 76 74 FA 00 D4 
3538.8256    1          0CF00203x     Rx d 8 01 A0 16 00 00 00 00 00 
3538.8262    1          18FF2997x     Rx d 8 02 2F 03 18 00 E2 00 00 
3538.8267    1          0CF00400x     Rx d 8 11 80 81 A0 16 00 00 81 
3538.8273    1          18FF20EFx     Rx d 8 F1 81 50 0B 7D EF 00 4F 
3538.8279    1          18FF7097x     Rx d 8 00 7D 00 0B E9 56 14 30 
3538.8304    1          0CFF82BCx     Rx d 8 74 F6 C0 80 1E FF FF CF 
3538.831     1          0CFF84A0x     Rx d 8 C0 00 C3 00 00 7E 7D AD 
3538.8316    1          18F0090Bx     Rx d 8 FF FF FF FF FF FF FF 7D 
3538.8356    1          0CF00203x     Rx d 8 01 A0 16 00 00 00 00 00 
3538.8362    1          0CF00400x     Rx d 8 11 80 81 A0 16 00 00 81 
3538.8367    1          18FF20EFx     Rx d 8 F1 81 50 0B 7D EF 00 4F 
3538.8361    2          18FFE699x     Rx d 8 6C 3D 07 14 06 01 57 45 
3538.8367    2          18FFE899x     Rx d 8 00 00 1A 20 0E 14 00 15 
3538.8456    2          10FFE597x     Rx d 8 17 59 FA C8 06 14 98 3A 
3538.8461    2          18FF3197x     Rx d 8 7A 02 76 02 F3 01 F3 01 
3538.8467    2          10F01797x     Rx d 8 0B 6C 3D 07 14 00 00 00 
3538.8473    2          10FFE497x     Rx d 8 8F 00 00 00 02 00 00 95 
3538.8478    2          18FFE899x     Rx d 8 00 00 1C 20 0E 14 00 15 
3538.8484    2          18FFE699x     Rx d 8 6D 3D 06 14 07 01 57 55 
3538.8373    1          0C040B97x     Rx d 8 7E 7D CC 00 FF FF FF 8A 
3538.8406    1          18F0090Bx     Rx d 8 FF FF FF FF FF FF FF 7D 
3538.8426    1          08FE6E0Bx     Rx d 8 5A 15 62 15 56 15 4E 15 
3538.8431    1          0CFF83AAx     Rx d 8 FF 75 5E 76 74 FD 00 E4 
3538.8456    1          0CF00203x     Rx d 8 01 A0 16 00 00 00 00 00 
3538.8462    1          18FEA297x     Rx d 8 00 24 2C 03 F0 0A 00 28 
3538.8468    1          0CF00400x     Rx d 8 11 80 81 A0 16 00 00 81 
3538.8473    1          18FA1117x     Rx d 8 01 00 00 00 00 3C 00 00 
3538.8479    1          18FF20EFx     Rx d 8 F1 81 50 0B 7D EF 00 4F 
3538.8484    1          18FF7097x     Rx d 8 00 7D 00 0B E9 58 14 50 
3538.849     1          18FF8CA9x     Rx d 8 00 00 00 00 00 00 00 00 
3538.8504    1          0CFF82BCx     Rx d 8 74 F8 C0 80 1E FF FF DF 
3538.851     1          0CFF84A0x     Rx d 8 C0 00 C3 00 00 7E 7D BE 
3538.8556    2          10FFE597x     Rx d 8 17 69 FA C8 06 14 98 3A 
3538.8561    2          18FF3097x     Rx d 8 D1 00 10 00 00 00 00 00 
3538.8567    2          18FFE899x     Rx d 8 00 00 21 20 0E 14 00 15 
3538.8573    2          18FFE699x     Rx d 8 6D 3D 07 14 0B 01 57 65 
3538.8656    2          10FFE597x     Rx d 8 17 79 FA C8 06 14 98 3A 
3538.8661    2          10F01797x     Rx d 8 0B 6D 3D 06 14 00 00 00 
3538.8667    2          18FFE899x     Rx d 8 00 00 1F 20 0E 14 00 15 
3538.8516    1          18F0090Bx     Rx d 8 FF FF FF FF FF FF FF 7D 
3538.8556    1          0CF00203x     Rx d 8 01 A0 16 00 00 00 00 00 
3538.8562    1          0CFE6CEEx     Rx d 8 FF FF FF FF FF FF 6C 15 
3538.8567    1          18F00503x     Rx d 8 7E E8 03 7E 00 00 00 00 
3538.8573    1          0CF00400x     Rx d 8 11 80 81 A0 16 00 00 81 
3538.8579    1          0CFE6C17x     Rx d 8 FF FF FF FF FF FF 6C 15 
3538.8585    1          18FA0117x     Rx d 8 10 00 F0 C3 0F FF FF FF 
3538.859     1          18FF20EFx     Rx d 8 F1 81 50 0B 7D EF 00 4F 
3538.8596    1          0C040B97x     Rx d 8 7E 7D CC 00 FF FF FF 9B 
3538.8602    1          0CF00300x     Rx d 8 00 07 00 00 00 00 00 00 
3538.8608    1          0C00000Bx     Rx d 8 30 FF FF FA FF FF FF 30 
3538.8613    1          18F0090Bx     Rx d 8 FF FF FF FF FF FF FF 7D 
3538.8619    1          18FFC7BCx     Rx d 8 00 C9 01 F6 00 28 28 00 
3538.8626    1          08FE6E0Bx     Rx d 8 54 15 52 15 4E 15 50 15 
3538.8631    1          18FEBF0Bx     Rx d 8 53 15 7D 7D 7D 7D FF FF 
3538.8637    1          0CFF83AAx     Rx d 8 FF 76 60 76 75 00 00 F4 
3538.8646    1          18F0010Bx     Rx d 8 00 00 C3 FF FF 01 FF F3 
3538.8656    1          0CF00203x     Rx d 8 01 A8 16 00 00 00 00 00 
3538.8662    1          18FEF100x     Rx d 8 00 5A 14 00 00 00 00 00 
3538.8668    1          0CF00400x     Rx d 8 11 80 81 A8 16 00 00 81 
3538.8673    1          18FE4F0Bx     Rx d 8 FF FF FF FF FF FF FF FF 
3538.8679    1          18FF20EFx     Rx d 8 F1 81 54 0B 7D EF 00 4F 
3538.8685    1          18FF7097x     Rx d 8 00 7D 00 0B E9 5A 14 70 
3538.8678    2          18FFE699x     Rx d 8 6D 3D 0D 14 0B 01 57 75 
3538.8732    2          10FFF5F4x     Rx d 8 05 08 7D 8B 00 00 00 00 
3538.8756    2          10FFE597x     Rx d 8 17 89 FA C8 06 14 98 3A 
3538.8761    2          18FFE699x     Rx d 8 6C 3D 05 14 09 01 57 85 
3538.8767    2          18FF5081x     Rx d 8 3D 33 A4 36 C7 DB 54 D2 
3538.8773    2          18FF00EFx     Rx d 8 01 00 00 00 00 00 00 00 
3538.8778    2          18FFE398x     Rx d 8 0F 00 18 94 0C 00 5F 90 
3538.8784    2          18FFC698x     Rx d 8 06 00 35 00 00 00 00 00 
3538.879     2          18FFE899x     Rx d 8 00 00 1E 20 0E 14 00 15 
3538.8795    2          18FFE799x     Rx d 8 4C 4A 4D 0A 3B 09 00 02 
3538.8801    2          18FFF298x     Rx d 8 18 14 0D 14 00 01 01 EA 
3538.869     1          18FEAD0Bx     Rx d 8 00 00 00 00 FE FE FF FF 
3538.8704    1          0CFF82BCx     Rx d 8 74 FB C0 80 1E FF FF EF 
3538.871     1          0CFF84A0x     Rx d 8 C0 00 C3 00 00 7E 7D CF 
3538.8716    1          18F0090Bx     Rx d 8 FF FF FF FF FF FF FF 7D 
3538.8756    1          0CF00203x     Rx d 8 01 A8 16 00 00 00 00 00 
3538.8762    1          18FA0617x     Rx d 8 30 00 FF FF FF FF FF FF 
3538.8768    1          18FDC40Bx     Rx d 8 00 00 64 F3 FF FF FF FF 
3538.8774    1          18FE4A03x     Rx d 8 00 01 00 00 00 00 00 00 
3538.8779    1          0CF00400x     Rx d 8 11 80 81 A8 16 00 00 81 
3538.8785    1          18FF20EFx     Rx d 8 F1 81 54 0B 7D EF 00 4F 
3538.8791    1          0C040B97x     Rx d 8 7E 7D CC 00 FF FF FF AC 
3538.8806    1          18F0090Bx     Rx d 8 FF FF FF FF FF FF FF 7D 
3538.8826    1          08FE6E0Bx     Rx d 8 54 15 4C 15 54 15 4A 15 
3538.8826    2          10FFF6F4x     Rx d 8 40 00 01 00 00 00 00 42 
3538.8856    2          10FFE597x     Rx d 8 17 99 FA C8 06 14 98 3A 
3538.8861    2          10F01797x     Rx d 8 0B 6D 3D 0D 14 00 00 00 
3538.8867    2          18FFE899x     Rx d 8 00 00 1E 20 0E 14 00 15 
3538.8872    2          18FFE699x     Rx d 8 6D 3D 01 14 0A 01 57 95 
3538.8956    2          10FFE597x     Rx d 8 17 A9 FA C8 06 14 98 3A 
3538.8961    2          10FFE497x     Rx d 8 8F 00 00 00 02 00 00 9A 
3538.8967    2          18FFE899x     Rx d 8 00 00 20 20 0E 14 00 15 
3538.8972    2          18FFE699x     Rx d 8 6D 3D 0F 14 0D 01 57 A5 
3538.8832    1          0CFF83AAx     Rx d 8 FF 76 61 76 75 04 01 04 
3538.8856    1          0CF00203x     Rx d 8 01 A8 16 00 00 00 00 00 
3538.8862    1          18FFFE97x     Rx d 8 00 00 00 00 00 00 00 00 
3538.8868    1          0CF00400x     Rx d 8 11 80 81 A8 16 00 00 81 
3538.8873    1          18FF20EFx     Rx d 8 F1 81 54 0B 7D EF 00 4F 
3538.8879    1          18FF7097x     Rx d 8 00 7D 00 0B E9 5D 14 90 
3538.8904    1          0CFF82BCx     Rx d 8 74 FE C0 80 1E FF FF FF 
3538.891     1          0CFF84A0x     Rx d 8 C0 00 C3 00 00 7E 7D D0 
3538.8916    1          18F0090Bx     Rx d 8 FF FF FF FF FF FF FF 7D 
3538.8956    1          0CF00203x     Rx d 8 01 A0 16 00 00 00 00 00 
3538.8962    1          18FEF117x     Rx d 8 F3 83 15 CF FF FF FF FF 
3538.8967    1          0CEFEF0Bx     Rx d 8 CC FA 7D FF FF FF FF 20 
3538.8973    1          18FF6597x     Rx d 8 01 00 00 00 00 00 00 00 
3538.8979    1          0CF00400x     Rx d 8 11 80 81 A0 16 00 00 81 
3538.8985    1          18FF20EFx     Rx d 8 F1 81 50 0B 7D EF 00 4F 
3538.899     1          0C040B97x     Rx d 8 7E 7D CC 00 FF FF FF BD 
3538.8996    1          18FF8CA9x     Rx d 8 00 00 00 00 00 00 00 00 
3538.9056    2          10FFE597x     Rx d 8 17 B9 FA C8 06 14 98 3A 
3538.9061    2          10F01797x     Rx d 8 0B 6D 3D 01 14 00 00 00 
3538.9067    2          18FFE699x     Rx d 8 6C 3D 10 14 0A 01 57 B5 
3538.9072    2          18FFE899x     Rx d 8 00 00 1D 20 0D 14 00 15 
3538.9006    1          18F0090Bx     Rx d 8 FF FF FF FF FF FF FF 7D 
3538.9026    1          08FE6E0Bx     Rx d 8 58 15 4C 15 5C 15 4A 15 
3538.9031    1          0CFF83AAx     Rx d 8 FF 76 6A 76 75 08 01 14 
3538.9056    1          0CFE6CEEx     Rx d 8 FF FF FF FF FF FF 83 15 
3538.9061    1          18FFEB97x     Rx d 8 6D 3D 6D 3D 00 00 00 00 
3538.9067    1          0CF00203x     Rx d 8 01 A8 16 00 00 00 00 00 
3538.9073    1          0CF00400x     Rx d 8 11 80 81 A8 16 00 00 81 
3538.9078    1          0CFE6C17x     Rx d 8 FF FF FF FF FF FF 83 15 
3538.9084    1          18FA0117x     Rx d 8 10 00 F0 C3 0F FF FF FF 
3538.909     1          18FF20EFx     Rx d 8 F1 81 54 0B 7D EF 00 4F 
3538.9095    1          18FF7097x     Rx d 8 00 7D 00 0A E9 5F 14 B0 
3538.9101    1          0CF00300x     Rx d 8 00 07 00 00 00 00 00 00 
3538.9107    1          0CFF82BCx     Rx d 8 75 01 C0 80 1E FF FF 0F 
3538.9113    1          0CFF84A0x     Rx d 8 C0 00 C3 00 00 7E 7D E1 
3538.9118    1          18F0090Bx     Rx d 8 FF FF FF FF FF FF FF 7D 
3538.9124    1          18FFC7BCx     Rx d 8 00 C9 01 F6 00 28 28 00 
3538.913     1          18FEBF0Bx     Rx d 8 52 15 7D 7D 7D 7C FF FF 
3538.9136    1          18FFC8A0x     Rx d 8 01 10 FF FF 00 FF FF FF 
3538.9141    1          18FFC9A0x     Rx d 8 C3 FB C8 FF FF FF FF FF 
3538.9156    1          0CF00203x     Rx d 8 01 A8 16 00 00 00 00 00 
3538.9162    1          18FFEA97x     Rx d 8 13 08 01 01 00 00 00 00 
3538.9168    1          0CF00400x     Rx d 8 11 80 81 A8 16 00 00 81 
3538.9173    1          18F001ACx     Rx d 8 FF FF FF FF FF FF FF F3 
3538.9179    1          18FF20EFx     Rx d 8 F1 81 54 0B 7D EF 00 4F 
3538.9185    1          0C040B97x     Rx d 8 7E 7D CC 00 FF FF FF CE 
3538.919     1          18FF8DACx     Rx d 8 00 0A 4A 00 00 00 00 00 
3538.9156    2          10FFE597x     Rx d 8 17 C9 FA C8 06 14 98 3A 
3538.9162    2          18FFE699x     Rx d 8 6C 3D 01 14 09 01 57 C5 
3538.9167    2          18FFE899x     Rx d 8 00 00 1F 20 0D 14 00 15 
3538.9231    2          10FFECF4x     Rx d 8 2C 34 E9 7D C6 B3 DD A3 
3538.9236    2          10FFF5F4x     Rx d 8 05 08 7D 8B 00 00 00 00 
3538.9256    2          10FFE597x     Rx d 8 17 D9 FA C8 06 14 98 3A 
3538.9261    2          10F01797x     Rx d 8 0B 6C 3D 10 14 00 00 00 
3538.9267    2          18FFE699x     Rx d 8 6D 3D FD 13 0B 01 57 D5 
3538.9273    2          18FFE899x     Rx d 8 00 00 21 20 0D 14 00 15 
3538.9281    2          18FFE398x     Rx d 8 0F 00 1B 94 0C 00 5F A0 
3538.929     2          18FFC698x     Rx d 8 04 00 02 00 00 00 00 00 
3538.93      2          18FFF298x     Rx d 8 1B 14 0D 14 00 01 01 EB 
3538.931     2          18F0089Ex     Rx d 8 81 37 88 08 4B 64 00 60 
3538.9338    2          10FFF6F4x     Rx d 8 40 00 01 00 00 00 00 43 
3538.9356    2          10FFE597x     Rx d 8 17 E9 FA C8 06 14 98 3A 
3538.9362    2          18FFE699x     Rx d 8 6D 3D 0E 14 0D 01 57 E5 
3538.9367    2          18FFE899x     Rx d 8 00 00 1E 20 0D 14 00 15 
3538.9456    2          10FFE597x     Rx d 8 17 F9 FA C8 06 14 98 3A 
3538.9461    2          18FF3197x     Rx d 8 79 02 76 02 F3 01 F3 01 
3538.9467    2          10F01797x     Rx d 8 0B 6D 3D FD 13 00 00 00 
3538.9196    1          18FEF121x     Rx d 8 FF FF FF FF 00 FF FF FF 
3538.9202    1          18FFA091x     Rx d 8 A0 F0 30 FC FF FF FF 46 
3538.9208    1          18F0090Bx     Rx d 8 FF FF FF FF FF FF FF 7D 
3538.9226    1          08FE6E0Bx     Rx d 8 56 15 4C 15 5E 15 42 15 
3538.9232    1          0CFF83AAx     Rx d 8 FF 76 70 76 75 0D 01 24 
3538.9256    1          0CF00203x     Rx d 8 01 A0 16 00 00 00 00 00 
3538.9262    1          18FF2997x     Rx d 8 02 2E 03 17 00 E2 00 00 
3538.9267    1          0CF00400x     Rx d 8 11 80 81 A0 16 00 00 81 
3538.9273    1          18FF20EFx     Rx d 8 F1 81 50 0B 7D EF 00 4F 
3538.9279    1          18FF7097x     Rx d 8 00 7D 00 0C E9 61 14 D0 
3538.9304    1          0CFF82BCx     Rx d 8 75 05 C0 80 1E FF FF 1F 
3538.931     1          0CFF84A0x     Rx d 8 C0 00 C3 00 00 7E 7D F2 
3538.9316    1          18F0090Bx     Rx d 8 FF FF FF FF FF FF FF 7D 
3538.9356    1          0CF00203x     Rx d 8 01 A0 16 00 00 00 00 00 
3538.9362    1          0CF00400x     Rx d 8 11 80 81 A0 16 00 00 81 
3538.9367    1          18FF20EFx     Rx d 8 F1 81 50 0B 7D EF 00 4F 
3538.9373    1          0C040B97x     Rx d 8 7E 7D CC 00 FF FF FF DF 
3538.9406    1          18F0090Bx     Rx d 8 FF FF FF FF FF FF FF 7D 
3538.9426    1          08FE6E0Bx     Rx d 8 56 15 50 15 58 15 4C 15 
3538.9431    1          0CFF83AAx     Rx d 8 FF 76 73 76 75 13 01 34 
3538.9456    1          0CF00203x     Rx d 8 01 A8 16 00 00 00 00 00 
3538.9462    1          18FEA297x     Rx d 8 00 24 2C 03 F0 0A 00 28 
3538.9468    1          0CF00400x     Rx d 8 11 80 81 A8 16 00 00 81 
3538.9473    1          18FF20EFx     Rx d 8 F1 81 54 0B 7D EF 00 4F 
3538.9479    1          18FF7097x     Rx d 8 00 7D 00 0A E9 62 14 F0 
3538.9485    1          18FF8CA9x     Rx d 8 00 00 00 00 00 00 00 00 
3538.9504    1          0CFF82BCx     Rx d 8 75 09 C0 80 1E FF FF 2F 
3538.951     1          0CFF84A0x     Rx d 8 C0 00 C3 00 00 7E 7D 03 
3538.9473    2          10FFE497x     Rx d 8 8F 00 00 00 02 00 00 9F 
3538.9478    2          18FFE699x     Rx d 8 6C 3D 0B 14 09 01 57 F5 
3538.9484    2          18FFE899x     Rx d 8 00 00 1B 20 0D 14 00 15 
